
SetupTitle, C-V Sweep
PrimitiveTest, C-V Sweep
TestParameter, Channel.UnitTyp, CMU
TestParameter, Channel.Unit, CMU1:MF/SC
TestParameter, Channel.IName, 
TestParameter, Channel.VName, VBias
TestParameter, Channel.Mode, 
TestParameter, Channel.Func, VAR1
TestParameter, Channel.Index, 
TestParameter, Channel.Time, 
TestParameter, Measurement.Primary.Locus, Double
TestParameter, Measurement.Primary.Scale, LINEAR
TestParameter, Measurement.Primary.Start, -1
TestParameter, Measurement.Primary.Stop, 1
TestParameter, Measurement.Primary.Step, 0.02
TestParameter, Measurement.Aborting.Condition, CONTINUE AT ANY
TestParameter, Measurement.PostOutput.Value, START
TestParameter, Measurement.PostOutput.Retention, OFF
TestParameter, Measurement.Secondary.ACLevel, 0.05
TestParameter, Measurement.Secondary.FName, Freq
TestParameter, Measurement.Secondary.Frequency, 1000, 10000, 100000, 1000000
TestParameter, Measurement.Bias.Source, 0
TestParameter, Measurement.ImpedanceMode.Model, Cs-Rs
TestParameter, Measurement.ImpedanceMode.CName, C
TestParameter, Measurement.ImpedanceMode.LName, L
TestParameter, Measurement.ImpedanceMode.GName, G
TestParameter, Measurement.ImpedanceMode.RName, R
TestParameter, Measurement.ImpedanceMode.QName, Q
TestParameter, Measurement.ImpedanceMode.DName, D
TestParameter, Measurement.ImpedanceMode.YName, Y
TestParameter, Measurement.ImpedanceMode.ZName, Z
TestParameter, Measurement.ImpedanceMode.ThName, Theta
TestParameter, Measurement.ImpedanceMode.BName, B
TestParameter, Measurement.ImpedanceMode.XName, X
TestParameter, Measurement.Monitor.Unit, CMU1:MF/SC
TestParameter, Measurement.Monitor.RangingMode, AUTO
TestParameter, Measurement.Monitor.RangeBoundary, 50
TestParameter, Measurement.Monitor.AcMonitorSymbol, 
TestParameter, Measurement.Monitor.DcMonitorSymbol, 
TestParameter, Measurement.Timing.Hold, 0
TestParameter, Measurement.Timing.Delay, 0
TestParameter, Measurement.Adc.UnitType, Cmu, Smu
TestParameter, Measurement.Adc.HighResolution.Mode, AUTO, AUTO
TestParameter, Measurement.Adc.HighResolution.Coeff, 2, 6
TestParameter, Measurement.WaitTime.Source.Coeff, 1
TestParameter, Measurement.WaitTime.Source.Offset, 0
TestParameter, Measurement.WaitTime.Monitor.Coeff, 1
TestParameter, Measurement.WaitTime.Monitor.Offset, 0
TestParameter, Output.Graph.Enabled, true
TestParameter, Output.Graph.AutoScaling, false
TestParameter, Output.Graph.XAxis.Data, VBias
TestParameter, Output.Graph.XAxis.Scale, Linear
TestParameter, Output.Graph.XAxis.Left, -0.1
TestParameter, Output.Graph.XAxis.Right, 0.1
TestParameter, Output.Graph.XAxis.RunTimeAutoScale, true
TestParameter, Output.Graph.YAxis.Data, C, R
TestParameter, Output.Graph.YAxis.Scale, Linear, Linear
TestParameter, Output.Graph.YAxis.Bottom, 0, 0
TestParameter, Output.Graph.YAxis.Top, 1E-10, 10000
TestParameter, Output.Graph.YAxis.Group, , 
TestParameter, Output.Graph.YAxis.RunTimeAutoScale, true, true
TestParameter, AutoAnalysis.Interpolation, false
TestParameter, AutoAnalysis.Line1.Enabled, false
TestParameter, AutoAnalysis.Line1.Type, 1
TestParameter, AutoAnalysis.Line1.Fix, True
TestParameter, AutoAnalysis.Line1.YAxis, 0
TestParameter, AutoAnalysis.Line1.Point1.Type, 0
TestParameter, AutoAnalysis.Line1.Point1.XY.X, 
TestParameter, AutoAnalysis.Line1.Point1.XY.Y, 
TestParameter, AutoAnalysis.Line1.Point1.Data.Var, 
TestParameter, AutoAnalysis.Line1.Point1.Data.Condition, 
TestParameter, AutoAnalysis.Line1.Point1.Data.Start, false
TestParameter, AutoAnalysis.Line1.Point1.Data.StartVar, 
TestParameter, AutoAnalysis.Line1.Point1.Data.StartCondition, 
TestParameter, AutoAnalysis.Line1.Point2.Type, 0
TestParameter, AutoAnalysis.Line1.Point2.XY.X, 
TestParameter, AutoAnalysis.Line1.Point2.XY.Y, 
TestParameter, AutoAnalysis.Line1.Point2.Data.Var, 
TestParameter, AutoAnalysis.Line1.Point2.Data.Condition, 
TestParameter, AutoAnalysis.Line1.Point2.Data.Start, false
TestParameter, AutoAnalysis.Line1.Point2.Data.StartVar, 
TestParameter, AutoAnalysis.Line1.Point2.Data.StartCondition, 
TestParameter, AutoAnalysis.Line1.GradientExpr, 0
TestParameter, AutoAnalysis.Line2.Enabled, false
TestParameter, AutoAnalysis.Line2.Type, 1
TestParameter, AutoAnalysis.Line2.Fix, True
TestParameter, AutoAnalysis.Line2.YAxis, 0
TestParameter, AutoAnalysis.Line2.Point1.Type, 0
TestParameter, AutoAnalysis.Line2.Point1.XY.X, 
TestParameter, AutoAnalysis.Line2.Point1.XY.Y, 
TestParameter, AutoAnalysis.Line2.Point1.Data.Var, 
TestParameter, AutoAnalysis.Line2.Point1.Data.Condition, 
TestParameter, AutoAnalysis.Line2.Point1.Data.Start, false
TestParameter, AutoAnalysis.Line2.Point1.Data.StartVar, 
TestParameter, AutoAnalysis.Line2.Point1.Data.StartCondition, 
TestParameter, AutoAnalysis.Line2.Point2.Type, 0
TestParameter, AutoAnalysis.Line2.Point2.XY.X, 
TestParameter, AutoAnalysis.Line2.Point2.XY.Y, 
TestParameter, AutoAnalysis.Line2.Point2.Data.Var, 
TestParameter, AutoAnalysis.Line2.Point2.Data.Condition, 
TestParameter, AutoAnalysis.Line2.Point2.Data.Start, false
TestParameter, AutoAnalysis.Line2.Point2.Data.StartVar, 
TestParameter, AutoAnalysis.Line2.Point2.Data.StartCondition, 
TestParameter, AutoAnalysis.Line2.GradientExpr, 0
TestParameter, AutoAnalysis.Marker.Enabled, false
TestParameter, AutoAnalysis.Marker.Data.Var, 
TestParameter, AutoAnalysis.Marker.Data.Condition, 
TestParameter, AutoAnalysis.Marker.Data.Start, false
TestParameter, AutoAnalysis.Marker.Data.StartVar, 
TestParameter, AutoAnalysis.Marker.Data.StartCondition, 
MetaData, TestRecord.EntryPoint, true
MetaData, TestRecord.RecordTime, 11/15/2019 07:40:51
MetaData, TestRecord.TestTarget, Al_1.0_5
MetaData, TestRecord.IterationIndex, 1
MetaData, TestRecord.Preservation, true
MetaData, TestRecord.Flag, ?
MetaData, TestRecord.Remarks, 
MetaData, TestRecord.LinkKey, 06bca00a-3923-4cd0-827d-67cd0200c8b2
Dimension1, 202, 202, 202
Dimension2, 4, 4, 4
DataName, VBias, C, R
DataValue, -1, 2.45888E-10, 1035985
DataValue, -0.98, 2.3030400000000003E-10, 1051925
DataValue, -0.96, 2.1935600000000002E-10, 1066826
DataValue, -0.94000000000000006, 2.0957700000000002E-10, 1082211
DataValue, -0.92, 2.01934E-10, 1096197
DataValue, -0.9, 1.9518400000000003E-10, 1109110
DataValue, -0.88, 1.89276E-10, 1121480
DataValue, -0.86, 1.8416900000000001E-10, 1131300
DataValue, -0.84, 1.79464E-10, 1141940
DataValue, -0.82000000000000006, 1.7478300000000002E-10, 1151882
DataValue, -0.8, 1.7042900000000002E-10, 1161933
DataValue, -0.78, 1.65989E-10, 1174558
DataValue, -0.76, 1.6181200000000003E-10, 1187075
DataValue, -0.74, 1.5690200000000001E-10, 1203248
DataValue, -0.72, 1.5181000000000002E-10, 1218925
DataValue, -0.70000000000000007, 1.46174E-10, 1236911
DataValue, -0.68, 1.40421E-10, 1254334
DataValue, -0.66, 1.34748E-10, 1274643
DataValue, -0.64, 1.2865600000000002E-10, 1296948
DataValue, -0.62, 1.22671E-10, 1321978
DataValue, -0.6, 1.1677E-10, 1349102
DataValue, -0.58, 1.1062100000000001E-10, 1381363
DataValue, -0.56, 1.0513500000000001E-10, 1412514
DataValue, -0.54, 9.99143E-11, 1444182
DataValue, -0.52, 9.50355E-11, 1474586
DataValue, -0.5, 9.07981E-11, 1502795
DataValue, -0.48, 8.6837E-11, 1530867
DataValue, -0.46, 8.3250999999999993E-11, 1558142
DataValue, -0.44, 8.04105E-11, 1577360
DataValue, -0.42, 7.77159E-11, 1599949
DataValue, -0.4, 7.54916E-11, 1615392
DataValue, -0.38, 7.34414E-11, 1632944
DataValue, -0.36, 7.18619E-11, 1642640
DataValue, -0.34, 7.07841E-11, 1644937
DataValue, -0.32, 6.97184E-11, 1648627
DataValue, -0.3, 6.9001699999999993E-11, 1647723
DataValue, -0.28, 6.85573E-11, 1643118
DataValue, -0.26, 6.81534E-11, 1636103
DataValue, -0.24, 6.79507E-11, 1629047
DataValue, -0.22, 6.79432E-11, 1612410
DataValue, -0.2, 6.8001199999999993E-11, 1601106
DataValue, -0.18, 6.8377299999999993E-11, 1580696
DataValue, -0.16, 6.87754E-11, 1610622
DataValue, -0.14, 6.81647E-11, 1565291
DataValue, -0.12, 6.92332E-11, 1590378
DataValue, -0.1, 6.9264E-11, 1583822
DataValue, -0.08, 6.95752E-11, 1571212
DataValue, -0.06, 7.02875E-11, 1551330
DataValue, -0.04, 7.10683E-11, 1533381
DataValue, -0.02, 7.20953E-11, 1514576
DataValue, 0, 7.32005E-11, 1498573
DataValue, 0.02, 7.44739E-11, 1472878
DataValue, 0.04, 7.5723E-11, 1450272
DataValue, 0.06, 7.73368E-11, 1423321
DataValue, 0.08, 7.88879E-11, 1400551
DataValue, 0.1, 8.03264E-11, 1380588
DataValue, 0.12, 8.21351E-11, 1357224
DataValue, 0.14, 8.37325E-11, 1336856
DataValue, 0.16, 8.544E-11, 1315788
DataValue, 0.18, 8.71015E-11, 1294575
DataValue, 0.2, 8.8831499999999992E-11, 1275780
DataValue, 0.22, 9.05604E-11, 1255506
DataValue, 0.24, 9.27576E-11, 1232294
DataValue, 0.26, 9.4286E-11, 1218823
DataValue, 0.28, 9.63989E-11, 1195972
DataValue, 0.3, 9.8397E-11, 1176653
DataValue, 0.32, 1.00267E-10, 1160750
DataValue, 0.34, 1.0239300000000001E-10, 1143989
DataValue, 0.36, 1.04306E-10, 1128491
DataValue, 0.38, 1.06307E-10, 1112436
DataValue, 0.4, 1.08234E-10, 1096986
DataValue, 0.42, 1.1038200000000002E-10, 1083096
DataValue, 0.44, 1.1208200000000001E-10, 1072591
DataValue, 0.46, 1.1398800000000001E-10, 1058712
DataValue, 0.48, 1.16091E-10, 1043047
DataValue, 0.5, 1.1787800000000002E-10, 1034027
DataValue, 0.52, 1.1949600000000002E-10, 1024386
DataValue, 0.54, 1.21173E-10, 1014295
DataValue, 0.56, 1.2274400000000002E-10, 1005738
DataValue, 0.58, 1.24674E-10, 995007.3
DataValue, 0.6, 1.26331E-10, 988892.9
DataValue, 0.62, 1.28031E-10, 979276.9
DataValue, 0.64, 1.2937000000000001E-10, 971924.20000000007
DataValue, 0.66, 1.30797E-10, 965715.20000000007
DataValue, 0.68, 1.32282E-10, 958516.10000000009
DataValue, 0.70000000000000007, 1.33608E-10, 950598.4
DataValue, 0.72, 1.34865E-10, 945475.3
DataValue, 0.74, 1.35776E-10, 943881.10000000009
DataValue, 0.76, 1.3677100000000002E-10, 940407.20000000007
DataValue, 0.78, 1.3780200000000002E-10, 935292
DataValue, 0.8, 1.38499E-10, 932305.60000000009
DataValue, 0.82000000000000006, 1.3921200000000002E-10, 929687.4
DataValue, 0.84, 1.40569E-10, 924676.60000000009
DataValue, 0.86, 1.4112200000000002E-10, 922601.9
DataValue, 0.88, 1.41777E-10, 919089.9
DataValue, 0.9, 1.42413E-10, 918387.9
DataValue, 0.92, 1.42928E-10, 915752.10000000009
DataValue, 0.94000000000000006, 1.43498E-10, 914649.3
DataValue, 0.96, 1.44332E-10, 911010.10000000009
DataValue, 0.98, 1.4484400000000002E-10, 908971
DataValue, 1, 1.4594600000000002E-10, 905095.8
DataValue, 1, 1.45366E-10, 907361.60000000009
DataValue, 0.98, 1.44366E-10, 910393
DataValue, 0.96, 1.43139E-10, 915432.10000000009
DataValue, 0.94000000000000006, 1.41862E-10, 920141.8
DataValue, 0.92, 1.4028100000000001E-10, 927526.4
DataValue, 0.9, 1.39045E-10, 929964.60000000009
DataValue, 0.88, 1.3772900000000002E-10, 938005.70000000007
DataValue, 0.86, 1.3566E-10, 946768.3
DataValue, 0.84, 1.34301E-10, 951516.5
DataValue, 0.82000000000000006, 1.32777E-10, 961907.20000000007
DataValue, 0.8, 1.30908E-10, 966870.10000000009
DataValue, 0.78, 1.29023E-10, 977944.60000000009
DataValue, 0.76, 1.2713100000000001E-10, 987075
DataValue, 0.74, 1.24773E-10, 998630.5
DataValue, 0.72, 1.2263000000000002E-10, 1011383
DataValue, 0.70000000000000007, 1.2037900000000002E-10, 1023599
DataValue, 0.68, 1.17921E-10, 1038984
DataValue, 0.66, 1.1466800000000001E-10, 1058265
DataValue, 0.64, 1.1224200000000001E-10, 1075287
DataValue, 0.62, 1.09567E-10, 1095721
DataValue, 0.6, 1.06632E-10, 1116828
DataValue, 0.58, 1.0409000000000001E-10, 1137879
DataValue, 0.56, 1.0101900000000001E-10, 1162154
DataValue, 0.54, 9.84541E-11, 1186303
DataValue, 0.52, 9.55646E-11, 1214946
DataValue, 0.5, 9.30027E-11, 1240293
DataValue, 0.48, 9.01192E-11, 1268676
DataValue, 0.46, 8.75067E-11, 1299312
DataValue, 0.44, 8.52075E-11, 1333543
DataValue, 0.42, 8.30731E-11, 1360482
DataValue, 0.4, 8.1011799999999992E-11, 1389478
DataValue, 0.38, 7.90942E-11, 1416194
DataValue, 0.36, 7.74124E-11, 1449956
DataValue, 0.34, 7.61193E-11, 1471001
DataValue, 0.32, 7.44477E-11, 1500614
DataValue, 0.3, 7.31248E-11, 1530099
DataValue, 0.28, 7.1926E-11, 1553315
DataValue, 0.26, 7.10681E-11, 1575050
DataValue, 0.24, 6.93591E-11, 1567031
DataValue, 0.22, 6.88805E-11, 1594703
DataValue, 0.2, 6.856E-11, 1618921
DataValue, 0.18, 6.8368499999999992E-11, 1640636
DataValue, 0.16, 6.81556E-11, 1657895
DataValue, 0.14, 6.80241E-11, 1676401
DataValue, 0.12, 6.78811E-11, 1691973
DataValue, 0.1, 6.80382E-11, 1703953
DataValue, 0.08, 6.81447E-11, 1712495
DataValue, 0.06, 6.8395299999999992E-11, 1720020
DataValue, 0.04, 6.89263E-11, 1725532
DataValue, 0.02, 6.9654E-11, 1722596
DataValue, 0, 7.04422E-11, 1720479
DataValue, -0.02, 7.18979E-11, 1709424
DataValue, -0.04, 7.367E-11, 1694854
DataValue, -0.06, 7.59807E-11, 1673976
DataValue, -0.08, 7.88488E-11, 1646394
DataValue, -0.1, 8.22618E-11, 1613487
DataValue, -0.12, 8.6112E-11, 1581228
DataValue, -0.14, 9.0425499999999992E-11, 1546498
DataValue, -0.16, 9.51592E-11, 1511860
DataValue, -0.18, 1.0040800000000001E-10, 1478959
DataValue, -0.2, 1.05852E-10, 1444278
DataValue, -0.22, 1.1139400000000001E-10, 1415073
DataValue, -0.24, 1.17316E-10, 1385190
DataValue, -0.26, 1.23198E-10, 1355428
DataValue, -0.28, 1.28637E-10, 1329720
DataValue, -0.3, 1.3371500000000001E-10, 1307799
DataValue, -0.32, 1.3857900000000002E-10, 1286859
DataValue, -0.34, 1.42766E-10, 1272523
DataValue, -0.36, 1.46518E-10, 1260243
DataValue, -0.38, 1.50128E-10, 1247501
DataValue, -0.4, 1.5331100000000002E-10, 1236495
DataValue, -0.42, 1.56257E-10, 1224425
DataValue, -0.44, 1.58664E-10, 1215537
DataValue, -0.46, 1.60948E-10, 1206005
DataValue, -0.48, 1.6369100000000001E-10, 1196408
DataValue, -0.5, 1.65821E-10, 1189905
DataValue, -0.52, 1.67834E-10, 1184022
DataValue, -0.54, 1.6941E-10, 1180390
DataValue, -0.56, 1.7113800000000003E-10, 1173350
DataValue, -0.58, 1.73248E-10, 1167051
DataValue, -0.6, 1.7495300000000003E-10, 1160938
DataValue, -0.62, 1.76849E-10, 1153169
DataValue, -0.64, 1.7846800000000001E-10, 1147285
DataValue, -0.66, 1.8071300000000002E-10, 1140772
DataValue, -0.68, 1.8283500000000002E-10, 1134258
DataValue, -0.70000000000000007, 1.84578E-10, 1131125
DataValue, -0.72, 1.8645700000000002E-10, 1126953
DataValue, -0.74, 1.8849E-10, 1123026
DataValue, -0.76, 1.90611E-10, 1118157
DataValue, -0.78, 1.9287500000000002E-10, 1113956
DataValue, -0.8, 1.95293E-10, 1108227
DataValue, -0.82000000000000006, 1.9765800000000003E-10, 1103384
DataValue, -0.84, 2.00723E-10, 1099906
DataValue, -0.86, 2.03592E-10, 1096490
DataValue, -0.88, 2.0748900000000002E-10, 1092568
DataValue, -0.9, 2.11221E-10, 1090251
DataValue, -0.92, 2.15485E-10, 1088307
DataValue, -0.94000000000000006, 2.2077000000000003E-10, 1082466
DataValue, -0.96, 2.2703600000000002E-10, 1076923
DataValue, -0.98, 2.3343500000000003E-10, 1072534
DataValue, -1, 2.41731E-10, 1066046
DataValue, -1, 6.40759E-11, 548912.1
DataValue, -0.98, 6.22664E-11, 542535
DataValue, -0.96, 6.03274E-11, 540331.5
DataValue, -0.94000000000000006, 5.86253E-11, 536266.20000000007
DataValue, -0.92, 5.72528E-11, 529518.1
DataValue, -0.9, 5.59599E-11, 524233.60000000003
DataValue, -0.88, 5.4708E-11, 522547.60000000003
DataValue, -0.86, 5.32685E-11, 523460.80000000005
DataValue, -0.84, 5.20137E-11, 524990.4
DataValue, -0.82000000000000006, 5.08422E-11, 523355.30000000005
DataValue, -0.8, 4.9763399999999996E-11, 518449.80000000005
DataValue, -0.78, 4.86643E-11, 514684.2
DataValue, -0.76, 4.73284E-11, 513776.80000000005
DataValue, -0.74, 4.59556E-11, 513597.80000000005
DataValue, -0.72, 4.4499699999999996E-11, 511868.9
DataValue, -0.70000000000000007, 4.30658E-11, 505228.30000000005
DataValue, -0.68, 4.17661E-11, 496313.7
DataValue, -0.66, 4.03297E-11, 488411.5
DataValue, -0.64, 3.8916399999999996E-11, 480215.10000000003
DataValue, -0.62, 3.74579E-11, 472972.7
DataValue, -0.6, 3.6101599999999996E-11, 462450.9
DataValue, -0.58, 3.49506E-11, 449095
DataValue, -0.56, 3.39835E-11, 434234.7
DataValue, -0.54, 3.29441E-11, 420563.5
DataValue, -0.52, 3.1915899999999997E-11, 408164.80000000005
DataValue, -0.5, 3.10175E-11, 395907.7
DataValue, -0.48, 3.02386E-11, 383381.7
DataValue, -0.46, 2.96478E-11, 368087.80000000005
DataValue, -0.44, 2.91747E-11, 355024.80000000005
DataValue, -0.42, 2.86801E-11, 344081.7
DataValue, -0.4, 2.82687E-11, 334149.60000000003
DataValue, -0.38, 2.7910599999999998E-11, 325077.5
DataValue, -0.36, 2.77041E-11, 315974
DataValue, -0.34, 2.76252E-11, 306333.2
DataValue, -0.32, 2.7381199999999998E-11, 303416
DataValue, -0.3, 2.73102E-11, 297555.5
DataValue, -0.28, 2.73066E-11, 293027.9
DataValue, -0.26, 2.72337E-11, 285090.9
DataValue, -0.24, 2.73547E-11, 280777.10000000003
DataValue, -0.22, 2.73445E-11, 277646
DataValue, -0.2, 2.74074E-11, 273207.9
DataValue, -0.18, 2.7472699999999998E-11, 267380.3
DataValue, -0.16, 2.76827E-11, 261394.80000000002
DataValue, -0.14, 2.7928399999999998E-11, 258227.90000000002
DataValue, -0.12, 2.81719E-11, 253336.30000000002
DataValue, -0.1, 2.84871E-11, 246822.2
DataValue, -0.08, 2.8723199999999998E-11, 241901.6
DataValue, -0.06, 2.9024E-11, 237039.30000000002
DataValue, -0.04, 2.94141E-11, 231994.5
DataValue, -0.02, 2.98027E-11, 228234.40000000002
DataValue, 0, 3.0103E-11, 223214.7
DataValue, 0.02, 3.05134E-11, 219316.1
DataValue, 0.04, 3.08903E-11, 216083.30000000002
DataValue, 0.06, 3.13519E-11, 210930.30000000002
DataValue, 0.08, 3.17944E-11, 207384
DataValue, 0.1, 3.23112E-11, 202566.2
DataValue, 0.12, 3.2867499999999997E-11, 199567.80000000002
DataValue, 0.14, 3.32584E-11, 195083.1
DataValue, 0.16, 3.38749E-11, 191400.30000000002
DataValue, 0.18, 3.43448E-11, 188868.80000000002
DataValue, 0.2, 3.49207E-11, 184663.7
DataValue, 0.22, 3.54627E-11, 182620.6
DataValue, 0.24, 3.61275E-11, 178313.90000000002
DataValue, 0.26, 3.66908E-11, 176127.90000000002
DataValue, 0.28, 3.7381E-11, 172769
DataValue, 0.3, 3.80838E-11, 169175.40000000002
DataValue, 0.32, 3.87085E-11, 166081.1
DataValue, 0.34, 3.95116E-11, 164149.80000000002
DataValue, 0.36, 4.01375E-11, 161165.7
DataValue, 0.38, 4.08932E-11, 158285.1
DataValue, 0.4, 4.1528799999999996E-11, 156688.5
DataValue, 0.42, 4.2165199999999996E-11, 154243.30000000002
DataValue, 0.44, 4.28171E-11, 151544.4
DataValue, 0.46, 4.35488E-11, 149193.2
DataValue, 0.48, 4.43099E-11, 146793
DataValue, 0.5, 4.4982999999999996E-11, 145055.9
DataValue, 0.52, 4.56422E-11, 143043.7
DataValue, 0.54, 4.6307E-11, 141266.4
DataValue, 0.56, 4.68025E-11, 139742.6
DataValue, 0.58, 4.73625E-11, 138290.2
DataValue, 0.6, 4.7785E-11, 137330.4
DataValue, 0.62, 4.8295799999999996E-11, 135952.80000000002
DataValue, 0.64, 4.87807E-11, 134942.80000000002
DataValue, 0.66, 4.9305299999999997E-11, 133627.6
DataValue, 0.68, 4.97936E-11, 132843.4
DataValue, 0.70000000000000007, 5.0331E-11, 131153
DataValue, 0.72, 5.05971E-11, 130116.20000000001
DataValue, 0.74, 5.10744E-11, 129585.70000000001
DataValue, 0.76, 5.13608E-11, 128916.40000000001
DataValue, 0.78, 5.1623E-11, 128127.70000000001
DataValue, 0.8, 5.1864E-11, 127952.5
DataValue, 0.82000000000000006, 5.21681E-11, 127360.70000000001
DataValue, 0.84, 5.24877E-11, 126377.6
DataValue, 0.86, 5.27065E-11, 125993.90000000001
DataValue, 0.88, 5.30133E-11, 125115.90000000001
DataValue, 0.9, 5.3174E-11, 124930.1
DataValue, 0.92, 5.35676E-11, 124526.1
DataValue, 0.94000000000000006, 5.37217E-11, 124059.90000000001
DataValue, 0.96, 5.38988E-11, 123639.40000000001
DataValue, 0.98, 5.39615E-11, 123225.70000000001
DataValue, 1, 5.40808E-11, 123458.70000000001
DataValue, 1, 5.40973E-11, 123453.90000000001
DataValue, 0.98, 5.37728E-11, 123745.6
DataValue, 0.96, 5.35493E-11, 124481.70000000001
DataValue, 0.94000000000000006, 5.31271E-11, 125099.5
DataValue, 0.92, 5.27977E-11, 125476.70000000001
DataValue, 0.9, 5.23375E-11, 125943.90000000001
