
SetupTitle, C-V Sweep
PrimitiveTest, C-V Sweep
TestParameter, Channel.UnitTyp, CMU
TestParameter, Channel.Unit, CMU1:MF/SC
TestParameter, Channel.IName, 
TestParameter, Channel.VName, VBias
TestParameter, Channel.Mode, 
TestParameter, Channel.Func, VAR1
TestParameter, Channel.Index, 
TestParameter, Channel.Time, 
TestParameter, Measurement.Primary.Locus, Double
TestParameter, Measurement.Primary.Scale, LINEAR
TestParameter, Measurement.Primary.Start, -1
TestParameter, Measurement.Primary.Stop, 1
TestParameter, Measurement.Primary.Step, 0.02
TestParameter, Measurement.Aborting.Condition, CONTINUE AT ANY
TestParameter, Measurement.PostOutput.Value, START
TestParameter, Measurement.PostOutput.Retention, OFF
TestParameter, Measurement.Secondary.ACLevel, 0.05
TestParameter, Measurement.Secondary.FName, Freq
TestParameter, Measurement.Secondary.Frequency, 1000, 10000, 100000, 1000000
TestParameter, Measurement.Bias.Source, 0
TestParameter, Measurement.ImpedanceMode.Model, Cs-Rs
TestParameter, Measurement.ImpedanceMode.CName, C
TestParameter, Measurement.ImpedanceMode.LName, L
TestParameter, Measurement.ImpedanceMode.GName, G
TestParameter, Measurement.ImpedanceMode.RName, R
TestParameter, Measurement.ImpedanceMode.QName, Q
TestParameter, Measurement.ImpedanceMode.DName, D
TestParameter, Measurement.ImpedanceMode.YName, Y
TestParameter, Measurement.ImpedanceMode.ZName, Z
TestParameter, Measurement.ImpedanceMode.ThName, Theta
TestParameter, Measurement.ImpedanceMode.BName, B
TestParameter, Measurement.ImpedanceMode.XName, X
TestParameter, Measurement.Monitor.Unit, CMU1:MF/SC
TestParameter, Measurement.Monitor.RangingMode, AUTO
TestParameter, Measurement.Monitor.RangeBoundary, 50
TestParameter, Measurement.Monitor.AcMonitorSymbol, 
TestParameter, Measurement.Monitor.DcMonitorSymbol, 
TestParameter, Measurement.Timing.Hold, 0
TestParameter, Measurement.Timing.Delay, 0
TestParameter, Measurement.Adc.UnitType, Cmu, Smu
TestParameter, Measurement.Adc.HighResolution.Mode, AUTO, AUTO
TestParameter, Measurement.Adc.HighResolution.Coeff, 2, 6
TestParameter, Measurement.WaitTime.Source.Coeff, 1
TestParameter, Measurement.WaitTime.Source.Offset, 0
TestParameter, Measurement.WaitTime.Monitor.Coeff, 1
TestParameter, Measurement.WaitTime.Monitor.Offset, 0
TestParameter, Output.Graph.Enabled, true
TestParameter, Output.Graph.AutoScaling, false
TestParameter, Output.Graph.XAxis.Data, VBias
TestParameter, Output.Graph.XAxis.Scale, Linear
TestParameter, Output.Graph.XAxis.Left, -0.1
TestParameter, Output.Graph.XAxis.Right, 0.1
TestParameter, Output.Graph.XAxis.RunTimeAutoScale, true
TestParameter, Output.Graph.YAxis.Data, C, R
TestParameter, Output.Graph.YAxis.Scale, Linear, Linear
TestParameter, Output.Graph.YAxis.Bottom, 0, 0
TestParameter, Output.Graph.YAxis.Top, 1E-10, 10000
TestParameter, Output.Graph.YAxis.Group, , 
TestParameter, Output.Graph.YAxis.RunTimeAutoScale, true, true
TestParameter, AutoAnalysis.Interpolation, false
TestParameter, AutoAnalysis.Line1.Enabled, false
TestParameter, AutoAnalysis.Line1.Type, 1
TestParameter, AutoAnalysis.Line1.Fix, True
TestParameter, AutoAnalysis.Line1.YAxis, 0
TestParameter, AutoAnalysis.Line1.Point1.Type, 0
TestParameter, AutoAnalysis.Line1.Point1.XY.X, 
TestParameter, AutoAnalysis.Line1.Point1.XY.Y, 
TestParameter, AutoAnalysis.Line1.Point1.Data.Var, 
TestParameter, AutoAnalysis.Line1.Point1.Data.Condition, 
TestParameter, AutoAnalysis.Line1.Point1.Data.Start, false
TestParameter, AutoAnalysis.Line1.Point1.Data.StartVar, 
TestParameter, AutoAnalysis.Line1.Point1.Data.StartCondition, 
TestParameter, AutoAnalysis.Line1.Point2.Type, 0
TestParameter, AutoAnalysis.Line1.Point2.XY.X, 
TestParameter, AutoAnalysis.Line1.Point2.XY.Y, 
TestParameter, AutoAnalysis.Line1.Point2.Data.Var, 
TestParameter, AutoAnalysis.Line1.Point2.Data.Condition, 
TestParameter, AutoAnalysis.Line1.Point2.Data.Start, false
TestParameter, AutoAnalysis.Line1.Point2.Data.StartVar, 
TestParameter, AutoAnalysis.Line1.Point2.Data.StartCondition, 
TestParameter, AutoAnalysis.Line1.GradientExpr, 0
TestParameter, AutoAnalysis.Line2.Enabled, false
TestParameter, AutoAnalysis.Line2.Type, 1
TestParameter, AutoAnalysis.Line2.Fix, True
TestParameter, AutoAnalysis.Line2.YAxis, 0
TestParameter, AutoAnalysis.Line2.Point1.Type, 0
TestParameter, AutoAnalysis.Line2.Point1.XY.X, 
TestParameter, AutoAnalysis.Line2.Point1.XY.Y, 
TestParameter, AutoAnalysis.Line2.Point1.Data.Var, 
TestParameter, AutoAnalysis.Line2.Point1.Data.Condition, 
TestParameter, AutoAnalysis.Line2.Point1.Data.Start, false
TestParameter, AutoAnalysis.Line2.Point1.Data.StartVar, 
TestParameter, AutoAnalysis.Line2.Point1.Data.StartCondition, 
TestParameter, AutoAnalysis.Line2.Point2.Type, 0
TestParameter, AutoAnalysis.Line2.Point2.XY.X, 
TestParameter, AutoAnalysis.Line2.Point2.XY.Y, 
TestParameter, AutoAnalysis.Line2.Point2.Data.Var, 
TestParameter, AutoAnalysis.Line2.Point2.Data.Condition, 
TestParameter, AutoAnalysis.Line2.Point2.Data.Start, false
TestParameter, AutoAnalysis.Line2.Point2.Data.StartVar, 
TestParameter, AutoAnalysis.Line2.Point2.Data.StartCondition, 
TestParameter, AutoAnalysis.Line2.GradientExpr, 0
TestParameter, AutoAnalysis.Marker.Enabled, false
TestParameter, AutoAnalysis.Marker.Data.Var, 
TestParameter, AutoAnalysis.Marker.Data.Condition, 
TestParameter, AutoAnalysis.Marker.Data.Start, false
TestParameter, AutoAnalysis.Marker.Data.StartVar, 
TestParameter, AutoAnalysis.Marker.Data.StartCondition, 
MetaData, TestRecord.EntryPoint, true
MetaData, TestRecord.RecordTime, 11/15/2019 06:10:37
MetaData, TestRecord.TestTarget, Al_2.0_10_n
MetaData, TestRecord.IterationIndex, 8
MetaData, TestRecord.Preservation, true
MetaData, TestRecord.Flag, ?
MetaData, TestRecord.Remarks, 
MetaData, TestRecord.LinkKey, f6bcdaeb-eaf0-4743-baf7-e685ea62aed2
Dimension1, 202, 202, 202
Dimension2, 4, 4, 4
DataName, VBias, C, R
DataValue, -1, 8.98116E-11, 468174.2
DataValue, -0.98, 8.9693E-11, 470231.4
DataValue, -0.96, 8.96623E-11, 468134.80000000005
DataValue, -0.94000000000000006, 8.96352E-11, 468993.9
DataValue, -0.92, 8.95788E-11, 467184.7
DataValue, -0.9, 8.94933E-11, 465222.60000000003
DataValue, -0.88, 8.95787E-11, 468227
DataValue, -0.86, 8.95898E-11, 468017.30000000005
DataValue, -0.84, 8.9497E-11, 467979.60000000003
DataValue, -0.82000000000000006, 8.95485E-11, 467347.30000000005
DataValue, -0.8, 8.94713E-11, 469164.80000000005
DataValue, -0.78, 8.92869E-11, 465128.80000000005
DataValue, -0.76, 8.94581E-11, 466718.60000000003
DataValue, -0.74, 8.94873E-11, 468907.4
DataValue, -0.72, 8.95517E-11, 468098.4
DataValue, -0.70000000000000007, 8.94565E-11, 467361.30000000005
DataValue, -0.68, 8.94798E-11, 468821.80000000005
DataValue, -0.66, 8.93308E-11, 469364.30000000005
DataValue, -0.64, 8.93985E-11, 468600.9
DataValue, -0.62, 8.93084E-11, 471270.4
DataValue, -0.6, 8.96628E-11, 472455.10000000003
DataValue, -0.58, 8.9466199999999993E-11, 471396.5
DataValue, -0.56, 8.95545E-11, 472850.30000000005
DataValue, -0.54, 8.95197E-11, 472199.60000000003
DataValue, -0.52, 8.95797E-11, 470166.80000000005
DataValue, -0.5, 8.94562E-11, 468346.30000000005
DataValue, -0.48, 8.9451199999999994E-11, 470475.4
DataValue, -0.46, 8.93289E-11, 469804.2
DataValue, -0.44, 8.94772E-11, 470706.7
DataValue, -0.42, 8.93947E-11, 470022.4
DataValue, -0.4, 8.94102E-11, 470582.2
DataValue, -0.38, 8.9477999999999993E-11, 471874.9
DataValue, -0.36, 8.94105E-11, 471082.7
DataValue, -0.34, 8.93868E-11, 471397.80000000005
DataValue, -0.32, 8.92744E-11, 468799.4
DataValue, -0.3, 8.94265E-11, 471002.2
DataValue, -0.28, 8.92531E-11, 470173.2
DataValue, -0.26, 8.94219E-11, 471697.9
DataValue, -0.24, 8.9321E-11, 472868.60000000003
DataValue, -0.22, 8.93359E-11, 470376.9
DataValue, -0.2, 8.934E-11, 471829
DataValue, -0.18, 8.92307E-11, 471150.30000000005
DataValue, -0.16, 8.92732E-11, 471359.4
DataValue, -0.14, 8.92132E-11, 467426.80000000005
DataValue, -0.12, 8.91053E-11, 467920.10000000003
DataValue, -0.1, 8.92257E-11, 468612.60000000003
DataValue, -0.08, 8.91072E-11, 466826.60000000003
DataValue, -0.06, 8.9195E-11, 467732.10000000003
DataValue, -0.04, 8.93007E-11, 470915.80000000005
DataValue, -0.02, 8.92263E-11, 471433.60000000003
DataValue, 0, 8.91998E-11, 470101.30000000005
DataValue, 0.02, 8.92506E-11, 471780.10000000003
DataValue, 0.04, 8.92286E-11, 471912.7
DataValue, 0.06, 8.92888E-11, 469746
DataValue, 0.08, 8.9202899999999993E-11, 470237.5
DataValue, 0.1, 8.93365E-11, 470068.2
DataValue, 0.12, 8.93182E-11, 471190.4
DataValue, 0.14, 8.9247499999999993E-11, 471302.10000000003
DataValue, 0.16, 8.94626E-11, 473818.80000000005
DataValue, 0.18, 8.9179299999999993E-11, 469858.80000000005
DataValue, 0.2, 8.93436E-11, 472704.60000000003
DataValue, 0.22, 8.92791E-11, 472848.10000000003
DataValue, 0.24, 8.92931E-11, 470675.9
DataValue, 0.26, 8.93497E-11, 472060.2
DataValue, 0.28, 8.92563E-11, 471489.4
DataValue, 0.3, 8.92101E-11, 471056.9
DataValue, 0.32, 8.92011E-11, 470078.80000000005
DataValue, 0.34, 8.92512E-11, 472294.2
DataValue, 0.36, 8.9286299999999993E-11, 471381.7
DataValue, 0.38, 8.92201E-11, 470695.10000000003
DataValue, 0.4, 8.92846E-11, 468940.2
DataValue, 0.42, 8.92541E-11, 467888.5
DataValue, 0.44, 8.93542E-11, 469805.10000000003
DataValue, 0.46, 8.92332E-11, 469319.2
DataValue, 0.48, 8.92867E-11, 469932.60000000003
DataValue, 0.5, 8.92615E-11, 469892.30000000005
DataValue, 0.52, 8.92484E-11, 470102.5
DataValue, 0.54, 8.9097E-11, 466475.5
DataValue, 0.56, 8.92165E-11, 469881.2
DataValue, 0.58, 8.93425E-11, 468419.4
DataValue, 0.6, 8.92093E-11, 467742.30000000005
DataValue, 0.62, 8.92756E-11, 468251
DataValue, 0.64, 8.92049E-11, 467613.5
DataValue, 0.66, 8.92517E-11, 471285.5
DataValue, 0.68, 8.93392E-11, 470192.2
DataValue, 0.70000000000000007, 8.95231E-11, 473804.30000000005
DataValue, 0.72, 8.94011E-11, 468486.7
DataValue, 0.74, 8.9359199999999993E-11, 471494
DataValue, 0.76, 8.94373E-11, 471771.7
DataValue, 0.78, 8.94626E-11, 471105.10000000003
DataValue, 0.8, 8.95424E-11, 472027
DataValue, 0.82000000000000006, 8.93763E-11, 470074.80000000005
DataValue, 0.84, 8.9465E-11, 468903.30000000005
DataValue, 0.86, 8.9460399999999992E-11, 470007.60000000003
DataValue, 0.88, 8.9560099999999992E-11, 471246.4
DataValue, 0.9, 8.9313299999999992E-11, 467811.7
DataValue, 0.92, 8.93919E-11, 468598.60000000003
DataValue, 0.94000000000000006, 8.94238E-11, 471940.2
DataValue, 0.96, 8.95203E-11, 472262.10000000003
DataValue, 0.98, 8.95083E-11, 468308.10000000003
DataValue, 1, 8.94414E-11, 469207.80000000005
DataValue, 1, 8.96278E-11, 472551.60000000003
DataValue, 0.98, 8.94475E-11, 469255.80000000005
DataValue, 0.96, 8.95027E-11, 468440.10000000003
DataValue, 0.94000000000000006, 8.9436599999999992E-11, 470524
DataValue, 0.92, 8.9400799999999993E-11, 471247
DataValue, 0.9, 8.94299E-11, 470398.5
DataValue, 0.88, 8.94262E-11, 468018.10000000003
DataValue, 0.86, 8.9384299999999993E-11, 469179.5
DataValue, 0.84, 8.93419E-11, 468263
DataValue, 0.82000000000000006, 8.93188E-11, 466248.5
DataValue, 0.8, 8.9375699999999992E-11, 467248.80000000005
DataValue, 0.78, 8.9496199999999992E-11, 472466.60000000003
DataValue, 0.76, 8.92699E-11, 468432.10000000003
DataValue, 0.74, 8.9422E-11, 468799.9
DataValue, 0.72, 8.92481E-11, 465524.60000000003
DataValue, 0.70000000000000007, 8.92995E-11, 470285.2
DataValue, 0.68, 8.92843E-11, 465212.80000000005
DataValue, 0.66, 8.92633E-11, 467389.7
DataValue, 0.64, 8.92385E-11, 470766.60000000003
DataValue, 0.62, 8.94107E-11, 470747.60000000003
DataValue, 0.6, 8.94161E-11, 470244.10000000003
DataValue, 0.58, 8.94877E-11, 472415.7
DataValue, 0.56, 8.93685E-11, 469829.4
DataValue, 0.54, 8.92253E-11, 469835.80000000005
DataValue, 0.52, 8.9361E-11, 471869.7
DataValue, 0.5, 8.94154E-11, 471361
DataValue, 0.48, 8.94631E-11, 474783.60000000003
DataValue, 0.46, 8.93477E-11, 468631.4
DataValue, 0.44, 8.91792E-11, 469634.7
DataValue, 0.42, 8.93256E-11, 468919.60000000003
DataValue, 0.4, 8.92262E-11, 469181.10000000003
DataValue, 0.38, 8.92571E-11, 470641.10000000003
DataValue, 0.36, 8.91699E-11, 469553.30000000005
DataValue, 0.34, 8.92724E-11, 469605.7
DataValue, 0.32, 8.9E-11, 468214.4
DataValue, 0.3, 8.91589E-11, 469700.9
DataValue, 0.28, 8.92169E-11, 468797
DataValue, 0.26, 8.92815E-11, 472058.60000000003
DataValue, 0.24, 8.9247499999999993E-11, 468451.60000000003
DataValue, 0.22, 8.9339699999999993E-11, 471808.10000000003
DataValue, 0.2, 8.92233E-11, 469174.9
DataValue, 0.18, 8.92058E-11, 466804.60000000003
DataValue, 0.16, 8.93002E-11, 472824.80000000005
DataValue, 0.14, 8.92626E-11, 470369.10000000003
DataValue, 0.12, 8.91559E-11, 469043.2
DataValue, 0.1, 8.9183599999999993E-11, 468457.9
DataValue, 0.08, 8.92192E-11, 470456.80000000005
DataValue, 0.06, 8.9260999999999993E-11, 471311.9
DataValue, 0.04, 8.91899E-11, 468170.10000000003
DataValue, 0.02, 8.91361E-11, 468917.60000000003
DataValue, 0, 8.92769E-11, 470066.80000000005
DataValue, -0.02, 8.92451E-11, 473227.7
DataValue, -0.04, 8.92762E-11, 469601.9
DataValue, -0.06, 8.9377199999999992E-11, 473060.30000000005
DataValue, -0.08, 8.93454E-11, 473189.30000000005
DataValue, -0.1, 8.94048E-11, 472419.80000000005
DataValue, -0.12, 8.91933E-11, 471738.4
DataValue, -0.14, 8.9412599999999993E-11, 472921.30000000005
DataValue, -0.16, 8.92957E-11, 473849.80000000005
DataValue, -0.18, 8.94225E-11, 471706.30000000005
DataValue, -0.2, 8.94573E-11, 473622.60000000003
DataValue, -0.22, 8.94721E-11, 472809.80000000005
DataValue, -0.24, 8.93388E-11, 471476.60000000003
DataValue, -0.26, 8.94369E-11, 470071.5
DataValue, -0.28, 8.92941E-11, 469988.4
DataValue, -0.3, 8.93569E-11, 468009.5
DataValue, -0.32, 8.94042E-11, 472046.10000000003
DataValue, -0.34, 8.94149E-11, 471901.7
DataValue, -0.36, 8.9342E-11, 469920.5
DataValue, -0.38, 8.93438E-11, 469287.5
DataValue, -0.4, 8.92794E-11, 470372.7
DataValue, -0.42, 8.9277299999999993E-11, 467720.5
DataValue, -0.44, 8.92751E-11, 466583.5
DataValue, -0.46, 8.94397E-11, 467095.10000000003
DataValue, -0.48, 8.94028E-11, 469079
DataValue, -0.5, 8.94359E-11, 470392.10000000003
DataValue, -0.52, 8.94196E-11, 470855.7
DataValue, -0.54, 8.93084E-11, 470750.4
DataValue, -0.56, 8.9348E-11, 466926.2
DataValue, -0.58, 8.94181E-11, 471687
DataValue, -0.6, 8.93021E-11, 467294.2
DataValue, -0.62, 8.9271299999999993E-11, 470293.4
DataValue, -0.64, 8.9429099999999993E-11, 468226.2
DataValue, -0.66, 8.9543599999999993E-11, 470969.5
DataValue, -0.68, 8.95607E-11, 472647.7
DataValue, -0.70000000000000007, 8.95304E-11, 470306.7
DataValue, -0.72, 8.95992E-11, 469082.60000000003
DataValue, -0.74, 8.9467E-11, 469925.30000000005
DataValue, -0.76, 8.95321E-11, 472468.9
DataValue, -0.78, 8.94936E-11, 470583.80000000005
DataValue, -0.8, 8.96625E-11, 470351.30000000005
DataValue, -0.82000000000000006, 8.96069E-11, 470462.2
DataValue, -0.84, 8.9667099999999992E-11, 471618.7
DataValue, -0.86, 8.9521099999999993E-11, 468704
DataValue, -0.88, 8.9601E-11, 472368.10000000003
DataValue, -0.9, 8.95999E-11, 472032.60000000003
DataValue, -0.92, 8.95199E-11, 468115.80000000005
DataValue, -0.94000000000000006, 8.96279E-11, 470202.4
DataValue, -0.96, 8.96146E-11, 466845.60000000003
DataValue, -0.98, 8.96396E-11, 467258.4
DataValue, -1, 8.96846E-11, 467662.30000000005
DataValue, -1, 7.97276E-11, 6908.29
DataValue, -0.98, 7.96552E-11, 6979.371
DataValue, -0.96, 7.9697E-11, 6934.594
DataValue, -0.94000000000000006, 7.9613799999999993E-11, 7009.671
DataValue, -0.92, 7.95954E-11, 6951.439
DataValue, -0.9, 7.95582E-11, 6953.638
DataValue, -0.88, 7.9575199999999993E-11, 6947.792
DataValue, -0.86, 7.95599E-11, 7010.166
DataValue, -0.84, 7.96149E-11, 6762.374
DataValue, -0.82000000000000006, 7.95617E-11, 6947.761
DataValue, -0.8, 7.96485E-11, 6975.215
DataValue, -0.78, 7.95533E-11, 6957.774
DataValue, -0.76, 7.9546899999999993E-11, 6921.138
DataValue, -0.74, 7.9526E-11, 6704.3
DataValue, -0.72, 7.9497E-11, 7043.098
DataValue, -0.70000000000000007, 7.95036E-11, 6948.9760000000006
DataValue, -0.68, 7.9534E-11, 6767.529
DataValue, -0.66, 7.9509999999999992E-11, 6807.804
DataValue, -0.64, 7.9583E-11, 6778.4180000000006
DataValue, -0.62, 7.9560599999999992E-11, 6830.026
DataValue, -0.6, 7.94854E-11, 6771.494
DataValue, -0.58, 7.94647E-11, 6819.6680000000006
DataValue, -0.56, 7.94656E-11, 6698.741
DataValue, -0.54, 7.94497E-11, 6840.32
DataValue, -0.52, 7.94668E-11, 6715.893
DataValue, -0.5, 7.94602E-11, 6761.966
DataValue, -0.48, 7.94351E-11, 6660.206
DataValue, -0.46, 7.94888E-11, 6648.237
DataValue, -0.44, 7.9393799999999993E-11, 6724.336
DataValue, -0.42, 7.94528E-11, 6852.503
DataValue, -0.4, 7.94557E-11, 6771.522
DataValue, -0.38, 7.94471E-11, 6610.106
DataValue, -0.36, 7.9434E-11, 6706.969
DataValue, -0.34, 7.94102E-11, 6691.9270000000006
DataValue, -0.32, 7.93919E-11, 6753.579
DataValue, -0.3, 7.94411E-11, 6786.02
DataValue, -0.28, 7.93613E-11, 6736.827
DataValue, -0.26, 7.93853E-11, 6644.456
DataValue, -0.24, 7.9386499999999993E-11, 6737.832
DataValue, -0.22, 7.94359E-11, 6788.59
DataValue, -0.2, 7.93595E-11, 6728.56
DataValue, -0.18, 7.93709E-11, 6649.908
DataValue, -0.16, 7.93664E-11, 6708.145
DataValue, -0.14, 7.9356E-11, 6678.392
DataValue, -0.12, 7.93736E-11, 6814.9850000000006
DataValue, -0.1, 7.9340199999999993E-11, 6610.061
DataValue, -0.08, 7.93381E-11, 6724.651
DataValue, -0.06, 7.93773E-11, 6634.327
DataValue, -0.04, 7.93487E-11, 6778.111
DataValue, -0.02, 7.94183E-11, 6698.496
DataValue, 0, 7.93149E-11, 6660.281
DataValue, 0.02, 7.9294E-11, 6581.0650000000005
DataValue, 0.04, 7.92813E-11, 6793.673
DataValue, 0.06, 7.93545E-11, 6711.928
DataValue, 0.08, 7.9375999999999993E-11, 6548.792
DataValue, 0.1, 7.93193E-11, 6724.219
DataValue, 0.12, 7.9369999999999993E-11, 6727.408
DataValue, 0.14, 7.93081E-11, 6795.336
DataValue, 0.16, 7.93692E-11, 6679.451
DataValue, 0.18, 7.93178E-11, 6600
DataValue, 0.2, 7.9347E-11, 6675.336
DataValue, 0.22, 7.9343E-11, 6523.131
DataValue, 0.24, 7.9381E-11, 6627.375
DataValue, 0.26, 7.9319E-11, 6690.008
DataValue, 0.28, 7.9349199999999993E-11, 6695.09
DataValue, 0.3, 7.9360999999999994E-11, 6656.308
DataValue, 0.32, 7.94209E-11, 6487.207
DataValue, 0.34, 7.93281E-11, 6579.022
DataValue, 0.36, 7.93993E-11, 6537.023
DataValue, 0.38, 7.94014E-11, 6565.826
DataValue, 0.4, 7.9349E-11, 6634.259
DataValue, 0.42, 7.9319599999999993E-11, 6667.112
DataValue, 0.44, 7.93195E-11, 6636.301
DataValue, 0.46, 7.93247E-11, 6752.8420000000006
DataValue, 0.48, 7.93656E-11, 6684.9580000000005
DataValue, 0.5, 7.94224E-11, 6736.303
DataValue, 0.52, 7.93714E-11, 6724.847
DataValue, 0.54, 7.94343E-11, 6662.4890000000005
DataValue, 0.56, 7.93716E-11, 6634.811
DataValue, 0.58, 7.94287E-11, 6526.983
DataValue, 0.6, 7.93959E-11, 6764.1140000000005
DataValue, 0.62, 7.9411E-11, 6621.081
DataValue, 0.64, 7.94158E-11, 6734.709
DataValue, 0.66, 7.94513E-11, 6612.204
DataValue, 0.68, 7.94108E-11, 6550.578
DataValue, 0.70000000000000007, 7.9324099999999992E-11, 6435.585
DataValue, 0.72, 7.9416299999999992E-11, 6704.753
DataValue, 0.74, 7.94318E-11, 6720.5380000000005
DataValue, 0.76, 7.94775E-11, 6611.9980000000005
DataValue, 0.78, 7.94521E-11, 6652.555
DataValue, 0.8, 7.9463899999999992E-11, 6591.167
DataValue, 0.82000000000000006, 7.95443E-11, 6595.308
DataValue, 0.84, 7.9493E-11, 6608.058
DataValue, 0.86, 7.94983E-11, 6675.4890000000005
DataValue, 0.88, 7.95512E-11, 6706.3510000000006
DataValue, 0.9, 7.95193E-11, 6659.742
DataValue, 0.92, 7.95327E-11, 6675.459
DataValue, 0.94000000000000006, 7.95036E-11, 6658.711
DataValue, 0.96, 7.95449E-11, 6634.861
DataValue, 0.98, 7.95498E-11, 6710.415
DataValue, 1, 7.95687E-11, 6669.577
