
SetupTitle, Backgate Breakdown
PrimitiveTest, I/V Sweep
TestParameter, Context.MainFrame, B1500A
TestParameter, Channel.UnitType, SMU, SMU
TestParameter, Channel.Unit, SMU1:MP, SMU4:MP
TestParameter, Channel.IName, I1, I2
TestParameter, Channel.VName, V1, V2
TestParameter, Channel.Mode, COMMON, V
TestParameter, Channel.Func, CONST, VAR1
TestParameter, Channel.Index, 
TestParameter, Channel.Time, 
TestParameter, Measurement.Port.Unit, SMU1:MP, SMU4:MP
TestParameter, Measurement.Port.SeriesResistor, NONE, NONE
TestParameter, Measurement.Port.Filter, ON, ON
TestParameter, Measurement.Port.OutputVoltageComparison, 0, 0
TestParameter, Measurement.Primary.Locus, Single
TestParameter, Measurement.Primary.Scale, LINEAR
TestParameter, Measurement.Primary.Start, 0
TestParameter, Measurement.Primary.Stop, 40
TestParameter, Measurement.Primary.Step, 0.4
TestParameter, Measurement.Primary.Compliance, 0.05
TestParameter, Measurement.Primary.PowerCompliance, 0
TestParameter, Measurement.Aborting.Condition, CONTINUE AT ANY
TestParameter, Measurement.PostOutput.Value, START
TestParameter, Measurement.PostOutput.Retention, OFF
TestParameter, Measurement.Bias.Source, 0, 0
TestParameter, Measurement.Bias.Compliance, 0.1, 0.05
TestParameter, Measurement.Monitor.Unit, SMU1:MP, SMU4:MP
TestParameter, Measurement.Monitor.Adc, HR ADC, HR ADC
TestParameter, Measurement.Monitor.Measurement, Compliance Side, Compliance Side
TestParameter, Measurement.Monitor.RangingMode, LIMITED, LIMITED
TestParameter, Measurement.Monitor.RangeBoundary, 1nA, 1nA
TestParameter, Measurement.Monitor.RangeRating, BY FULL RANGE, BY FULL RANGE
TestParameter, Measurement.Monitor.RangeRatingCoeff, 50, 50
TestParameter, Measurement.Timing.Hold, 0
TestParameter, Measurement.Timing.Delay, 0
TestParameter, Measurement.Adc.HighSpeed.Mode, AUTO
TestParameter, Measurement.Adc.HighSpeed.Coeff, 1
TestParameter, Measurement.Adc.HighResolution.AutoZero, OFF
TestParameter, Measurement.Adc.HighResolution.Mode, AUTO
TestParameter, Measurement.Adc.HighResolution.Coeff, 6
TestParameter, Measurement.WaitTime.Source.Coeff, 1
TestParameter, Measurement.WaitTime.Source.Offset, 0
TestParameter, Measurement.WaitTime.Monitor.Coeff, 1
TestParameter, Measurement.WaitTime.Monitor.Offset, 0
TestParameter, Output.Graph.Enabled, true
TestParameter, Output.Graph.AutoScaling, false
TestParameter, Output.Graph.XAxis.Data, V2
TestParameter, Output.Graph.XAxis.Scale, Linear
TestParameter, Output.Graph.XAxis.Left, 0
TestParameter, Output.Graph.XAxis.Right, 20
TestParameter, Output.Graph.XAxis.RunTimeAutoScale, true
TestParameter, Output.Graph.YAxis.Data, I2
TestParameter, Output.Graph.YAxis.Scale, Linear
TestParameter, Output.Graph.YAxis.Bottom, -0.1
TestParameter, Output.Graph.YAxis.Top, 0.1
TestParameter, Output.Graph.YAxis.Group, 
TestParameter, Output.Graph.YAxis.RunTimeAutoScale, true
TestParameter, AutoAnalysis.Interpolation, false
TestParameter, AutoAnalysis.Line1.Enabled, false
TestParameter, AutoAnalysis.Line1.Type, 1
TestParameter, AutoAnalysis.Line1.Fix, True
TestParameter, AutoAnalysis.Line1.YAxis, 0
TestParameter, AutoAnalysis.Line1.Point1.Type, 0
TestParameter, AutoAnalysis.Line1.Point1.XY.X, 
TestParameter, AutoAnalysis.Line1.Point1.XY.Y, 
TestParameter, AutoAnalysis.Line1.Point1.Data.Var, 
TestParameter, AutoAnalysis.Line1.Point1.Data.Condition, 
TestParameter, AutoAnalysis.Line1.Point1.Data.Start, false
TestParameter, AutoAnalysis.Line1.Point1.Data.StartVar, 
TestParameter, AutoAnalysis.Line1.Point1.Data.StartCondition, 
TestParameter, AutoAnalysis.Line1.Point2.Type, 0
TestParameter, AutoAnalysis.Line1.Point2.XY.X, 
TestParameter, AutoAnalysis.Line1.Point2.XY.Y, 
TestParameter, AutoAnalysis.Line1.Point2.Data.Var, 
TestParameter, AutoAnalysis.Line1.Point2.Data.Condition, 
TestParameter, AutoAnalysis.Line1.Point2.Data.Start, false
TestParameter, AutoAnalysis.Line1.Point2.Data.StartVar, 
TestParameter, AutoAnalysis.Line1.Point2.Data.StartCondition, 
TestParameter, AutoAnalysis.Line1.GradientExpr, 0
TestParameter, AutoAnalysis.Line2.Enabled, false
TestParameter, AutoAnalysis.Line2.Type, 1
TestParameter, AutoAnalysis.Line2.Fix, True
TestParameter, AutoAnalysis.Line2.YAxis, 0
TestParameter, AutoAnalysis.Line2.Point1.Type, 0
TestParameter, AutoAnalysis.Line2.Point1.XY.X, 
TestParameter, AutoAnalysis.Line2.Point1.XY.Y, 
TestParameter, AutoAnalysis.Line2.Point1.Data.Var, 
TestParameter, AutoAnalysis.Line2.Point1.Data.Condition, 
TestParameter, AutoAnalysis.Line2.Point1.Data.Start, false
TestParameter, AutoAnalysis.Line2.Point1.Data.StartVar, 
TestParameter, AutoAnalysis.Line2.Point1.Data.StartCondition, 
TestParameter, AutoAnalysis.Line2.Point2.Type, 0
TestParameter, AutoAnalysis.Line2.Point2.XY.X, 
TestParameter, AutoAnalysis.Line2.Point2.XY.Y, 
TestParameter, AutoAnalysis.Line2.Point2.Data.Var, 
TestParameter, AutoAnalysis.Line2.Point2.Data.Condition, 
TestParameter, AutoAnalysis.Line2.Point2.Data.Start, false
TestParameter, AutoAnalysis.Line2.Point2.Data.StartVar, 
TestParameter, AutoAnalysis.Line2.Point2.Data.StartCondition, 
TestParameter, AutoAnalysis.Line2.GradientExpr, 0
TestParameter, AutoAnalysis.Marker.Enabled, false
TestParameter, AutoAnalysis.Marker.Data.Var, 
TestParameter, AutoAnalysis.Marker.Data.Condition, 
TestParameter, AutoAnalysis.Marker.Data.Start, false
TestParameter, AutoAnalysis.Marker.Data.StartVar, 
TestParameter, AutoAnalysis.Marker.Data.StartCondition, 
MetaData, TestRecord.EntryPoint, true
MetaData, TestRecord.RecordTime, 11/15/2019 05:34:24
MetaData, TestRecord.TestTarget, Al_1.5_1.0
MetaData, TestRecord.IterationIndex, 1
MetaData, TestRecord.Preservation, true
MetaData, TestRecord.Flag, 
MetaData, TestRecord.Remarks, 
MetaData, TestRecord.LinkKey, 9f87e3a7-70f7-43a3-a85e-ad5f8bf688d2
Dimension1, 101, 101
Dimension2, 1, 1
DataName, V2, I2
DataValue, 0, -1.0900000000000001E-11
DataValue, 0.4, 1.363E-11
DataValue, 0.8, 6.2900000000000009E-12
DataValue, 1.2, 3.6030000000000004E-11
DataValue, 1.6, 7.0430000000000009E-11
DataValue, 2, 8.1350000000000009E-11
DataValue, 2.4, 1.7054E-09
DataValue, 2.8000000000000003, 3.8866399999999994E-08
DataValue, 3.2, 1.8996E-07
DataValue, 3.6, 2.292E-07
DataValue, 4, 2.5644E-07
DataValue, 4.4, 2.9254E-07
DataValue, 4.8, 3.3512E-07
DataValue, 5.2, 3.732E-07
DataValue, 5.6000000000000005, 4.1E-07
DataValue, 6, 4.5164E-07
DataValue, 6.4, 4.9053E-06
DataValue, 6.8, 6.265000000000001E-06
DataValue, 7.2, 8.3366E-06
DataValue, 7.6000000000000005, 4.0803000000000006E-06
DataValue, 8, 5.4107000000000006E-06
DataValue, 8.4, 6.919400000000001E-06
DataValue, 8.8, 5.4497000000000005E-06
DataValue, 9.2000000000000011, 5.3494000000000008E-06
DataValue, 9.6, 6.5136000000000006E-06
DataValue, 10, 2.7462000000000002E-05
DataValue, 10.4, 3.6996E-05
DataValue, 10.8, 3.5414000000000003E-05
DataValue, 11.200000000000001, 4.434E-05
DataValue, 11.6, 4.1344E-05
DataValue, 12, 4.2632E-05
DataValue, 12.4, 4.1326000000000004E-05
DataValue, 12.8, 4.3618E-05
DataValue, 13.200000000000001, 4.5948E-05
DataValue, 13.6, 4.3206E-05
DataValue, 14, 4.583E-05
DataValue, 14.4, 8.554E-05
DataValue, 14.8, 8.7654E-05
DataValue, 15.200000000000001, 9.3892E-05
DataValue, 15.6, 9.814E-05
DataValue, 16, 0.00019634
DataValue, 16.4, 0.00019058
DataValue, 16.8, 0.00019974
DataValue, 17.2, 0.00020894000000000002
DataValue, 17.6, 0.00021998000000000002
DataValue, 18, 0.00023050000000000002
DataValue, 18.400000000000002, 0.00023538
DataValue, 18.8, 0.00041148000000000004
DataValue, 19.2, 0.00090022000000000008
DataValue, 19.6, 0.0025988
DataValue, 20, 0.0029248
DataValue, 20.400000000000002, 0.0030156000000000002
DataValue, 20.8, 0.0031196
DataValue, 21.2, 0.0032244
DataValue, 21.6, 0.0033938
DataValue, 22, 0.0038128
DataValue, 22.400000000000002, 0.004204
DataValue, 22.8, 0.0049128
DataValue, 23.2, 0.005346
DataValue, 23.6, 0.0057988
DataValue, 24, 0.0081966
DataValue, 24.400000000000002, 0.0110458
DataValue, 24.8, 0.013706000000000001
DataValue, 25.2, 0.017138
DataValue, 25.6, 0.020706000000000002
DataValue, 26, 0.024774
DataValue, 26.400000000000002, 0.028068000000000003
DataValue, 26.8, 0.032802000000000005
DataValue, 27.2, 0.042576
DataValue, 27.6, 0.050086000000000006
DataValue, 28, 0.050072000000000005
DataValue, 28.400000000000002, 0.050014
DataValue, 28.8, 0.050010000000000006
DataValue, 29.2, 0.050062
DataValue, 29.6, 0.050016000000000005
DataValue, 30, 0.050028
DataValue, 30.400000000000002, 0.050002000000000005
DataValue, 30.8, 0.049978
DataValue, 31.2, 0.049974000000000005
DataValue, 31.6, 0.050008000000000004
DataValue, 32, 0.050044000000000005
DataValue, 32.4, 0.050050000000000004
DataValue, 32.8, 0.050042
DataValue, 33.2, 0.050016000000000005
DataValue, 33.6, 0.050042
DataValue, 34, 0.050010000000000006
DataValue, 34.4, 0.050018000000000007
DataValue, 34.800000000000004, 0.050016000000000005
DataValue, 35.2, 0.049978
DataValue, 35.6, 0.049984000000000008
DataValue, 36, 0.049982000000000006
DataValue, 36.4, 0.050012
DataValue, 36.800000000000004, 0.049990000000000007
DataValue, 37.2, 0.049996000000000006
DataValue, 37.6, 0.049984000000000008
DataValue, 38, 0.050006
DataValue, 38.4, 0.049998000000000008
DataValue, 38.800000000000004, 0.050026
DataValue, 39.2, 0.049990000000000007
DataValue, 39.6, 0.049992
DataValue, 40, 0.050034