
SetupTitle, Breakdown
PrimitiveTest, I/V Sweep
TestParameter, Context.MainFrame, B1500A
TestParameter, Channel.UnitType, SMU, SMU, SMU
TestParameter, Channel.Unit, SMU1:MP, SMU3:MP, SMU4:MP
TestParameter, Channel.IName, I1, I3, I2
TestParameter, Channel.VName, V1, V3, V2
TestParameter, Channel.Mode, COMMON, V, COMMON
TestParameter, Channel.Func, CONST, VAR1, CONST
TestParameter, Channel.Index, 
TestParameter, Channel.Time, 
TestParameter, Measurement.Port.Unit, SMU1:MP, SMU3:MP, SMU4:MP
TestParameter, Measurement.Port.SeriesResistor, NONE, NONE, NONE
TestParameter, Measurement.Port.Filter, ON, ON, ON
TestParameter, Measurement.Port.OutputVoltageComparison, 0, 0, 0
TestParameter, Measurement.Primary.Locus, Single
TestParameter, Measurement.Primary.Scale, LINEAR
TestParameter, Measurement.Primary.Start, 0
TestParameter, Measurement.Primary.Stop, 20
TestParameter, Measurement.Primary.Step, 0.2
TestParameter, Measurement.Primary.Compliance, 0.1
TestParameter, Measurement.Primary.PowerCompliance, 0
TestParameter, Measurement.Aborting.Condition, CONTINUE AT ANY
TestParameter, Measurement.PostOutput.Value, START
TestParameter, Measurement.PostOutput.Retention, OFF
TestParameter, Measurement.Bias.Source, 0, 0, 0
TestParameter, Measurement.Bias.Compliance, 0.1, 0.1, 0.1
TestParameter, Measurement.Monitor.Unit, SMU1:MP, SMU3:MP, SMU4:MP
TestParameter, Measurement.Monitor.Adc, HR ADC, HR ADC, HR ADC
TestParameter, Measurement.Monitor.Measurement, Compliance Side, Compliance Side, Compliance Side
TestParameter, Measurement.Monitor.RangingMode, LIMITED, LIMITED, LIMITED
TestParameter, Measurement.Monitor.RangeBoundary, 1nA, 1nA, 1nA
TestParameter, Measurement.Monitor.RangeRating, BY FULL RANGE, BY FULL RANGE, BY FULL RANGE
TestParameter, Measurement.Monitor.RangeRatingCoeff, 50, 50, 50
TestParameter, Measurement.Timing.Hold, 0
TestParameter, Measurement.Timing.Delay, 0
TestParameter, Measurement.Adc.HighSpeed.Mode, AUTO
TestParameter, Measurement.Adc.HighSpeed.Coeff, 1
TestParameter, Measurement.Adc.HighResolution.AutoZero, OFF
TestParameter, Measurement.Adc.HighResolution.Mode, AUTO
TestParameter, Measurement.Adc.HighResolution.Coeff, 6
TestParameter, Measurement.WaitTime.Source.Coeff, 1
TestParameter, Measurement.WaitTime.Source.Offset, 0
TestParameter, Measurement.WaitTime.Monitor.Coeff, 1
TestParameter, Measurement.WaitTime.Monitor.Offset, 0
TestParameter, Output.Graph.Enabled, true
TestParameter, Output.Graph.AutoScaling, false
TestParameter, Output.Graph.XAxis.Data, V3
TestParameter, Output.Graph.XAxis.Scale, Linear
TestParameter, Output.Graph.XAxis.Left, 0
TestParameter, Output.Graph.XAxis.Right, 20
TestParameter, Output.Graph.XAxis.RunTimeAutoScale, true
TestParameter, Output.Graph.YAxis.Data, I3
TestParameter, Output.Graph.YAxis.Scale, Linear
TestParameter, Output.Graph.YAxis.Bottom, -0.1
TestParameter, Output.Graph.YAxis.Top, 0.1
TestParameter, Output.Graph.YAxis.Group, 
TestParameter, Output.Graph.YAxis.RunTimeAutoScale, true
TestParameter, AutoAnalysis.Interpolation, false
TestParameter, AutoAnalysis.Line1.Enabled, false
TestParameter, AutoAnalysis.Line1.Type, 1
TestParameter, AutoAnalysis.Line1.Fix, True
TestParameter, AutoAnalysis.Line1.YAxis, 0
TestParameter, AutoAnalysis.Line1.Point1.Type, 0
TestParameter, AutoAnalysis.Line1.Point1.XY.X, 
TestParameter, AutoAnalysis.Line1.Point1.XY.Y, 
TestParameter, AutoAnalysis.Line1.Point1.Data.Var, 
TestParameter, AutoAnalysis.Line1.Point1.Data.Condition, 
TestParameter, AutoAnalysis.Line1.Point1.Data.Start, false
TestParameter, AutoAnalysis.Line1.Point1.Data.StartVar, 
TestParameter, AutoAnalysis.Line1.Point1.Data.StartCondition, 
TestParameter, AutoAnalysis.Line1.Point2.Type, 0
TestParameter, AutoAnalysis.Line1.Point2.XY.X, 
TestParameter, AutoAnalysis.Line1.Point2.XY.Y, 
TestParameter, AutoAnalysis.Line1.Point2.Data.Var, 
TestParameter, AutoAnalysis.Line1.Point2.Data.Condition, 
TestParameter, AutoAnalysis.Line1.Point2.Data.Start, false
TestParameter, AutoAnalysis.Line1.Point2.Data.StartVar, 
TestParameter, AutoAnalysis.Line1.Point2.Data.StartCondition, 
TestParameter, AutoAnalysis.Line1.GradientExpr, 0
TestParameter, AutoAnalysis.Line2.Enabled, false
TestParameter, AutoAnalysis.Line2.Type, 1
TestParameter, AutoAnalysis.Line2.Fix, True
TestParameter, AutoAnalysis.Line2.YAxis, 0
TestParameter, AutoAnalysis.Line2.Point1.Type, 0
TestParameter, AutoAnalysis.Line2.Point1.XY.X, 
TestParameter, AutoAnalysis.Line2.Point1.XY.Y, 
TestParameter, AutoAnalysis.Line2.Point1.Data.Var, 
TestParameter, AutoAnalysis.Line2.Point1.Data.Condition, 
TestParameter, AutoAnalysis.Line2.Point1.Data.Start, false
TestParameter, AutoAnalysis.Line2.Point1.Data.StartVar, 
TestParameter, AutoAnalysis.Line2.Point1.Data.StartCondition, 
TestParameter, AutoAnalysis.Line2.Point2.Type, 0
TestParameter, AutoAnalysis.Line2.Point2.XY.X, 
TestParameter, AutoAnalysis.Line2.Point2.XY.Y, 
TestParameter, AutoAnalysis.Line2.Point2.Data.Var, 
TestParameter, AutoAnalysis.Line2.Point2.Data.Condition, 
TestParameter, AutoAnalysis.Line2.Point2.Data.Start, false
TestParameter, AutoAnalysis.Line2.Point2.Data.StartVar, 
TestParameter, AutoAnalysis.Line2.Point2.Data.StartCondition, 
TestParameter, AutoAnalysis.Line2.GradientExpr, 0
TestParameter, AutoAnalysis.Marker.Enabled, false
TestParameter, AutoAnalysis.Marker.Data.Var, 
TestParameter, AutoAnalysis.Marker.Data.Condition, 
TestParameter, AutoAnalysis.Marker.Data.Start, false
TestParameter, AutoAnalysis.Marker.Data.StartVar, 
TestParameter, AutoAnalysis.Marker.Data.StartCondition, 
MetaData, TestRecord.EntryPoint, true
MetaData, TestRecord.RecordTime, 11/15/2019 04:34:14
MetaData, TestRecord.TestTarget, Al2O3_0_10
MetaData, TestRecord.IterationIndex, 1
MetaData, TestRecord.Preservation, true
MetaData, TestRecord.Flag, 
MetaData, TestRecord.Remarks, 
MetaData, TestRecord.LinkKey, b0723b45-3c4d-41e5-b983-303af307f50b
Dimension1, 101, 101
Dimension2, 1, 1
DataName, V3, I3
DataValue, 0, -4.2500000000000007E-12
DataValue, 0.2, 2.3300000000000004E-12
DataValue, 0.4, 8.7900000000000011E-12
DataValue, 0.6, 1.118E-11
DataValue, 0.8, 1.602E-11
DataValue, 1, 1.8930000000000003E-11
DataValue, 1.2, 2.338E-11
DataValue, 1.4000000000000001, 2.4770000000000002E-11
DataValue, 1.6, 2.914E-11
DataValue, 1.8, 3.182E-11
DataValue, 2, 3.668E-11
DataValue, 2.2, 4.691E-11
DataValue, 2.4, 6.758E-11
DataValue, 2.6, 1.1354E-10
DataValue, 2.8000000000000003, 2.3738E-10
DataValue, 3, 5.8867E-10
DataValue, 3.2, 1.5305E-09
DataValue, 3.4, 3.7301E-09
DataValue, 3.6, 8.6006E-09
DataValue, 3.8000000000000003, 2.03233E-08
DataValue, 4, 4.89873E-08
DataValue, 4.2, 8.5597599999999988E-08
DataValue, 4.4, 1.688E-07
DataValue, 4.6000000000000005, 3.6066E-07
DataValue, 4.8, 6.9712E-07
DataValue, 5, 7.0342E-07
DataValue, 5.2, 1.0556000000000001E-06
DataValue, 5.4, 2.0389E-06
DataValue, 5.6000000000000005, 3.6750000000000004E-06
DataValue, 5.8, 6.0879000000000006E-06
DataValue, 6, 9.3756E-06
DataValue, 6.2, 7.6283000000000011E-06
DataValue, 6.4, 9.3665000000000009E-06
DataValue, 6.6000000000000005, 1.27E-05
DataValue, 6.8, 2.1884E-05
DataValue, 7, 3.5146E-05
DataValue, 7.2, 5.2374000000000004E-05
DataValue, 7.4, 7.226E-05
DataValue, 7.6000000000000005, 0.10000200000000001
DataValue, 7.8, 0.10000600000000001
DataValue, 8, 0.10000600000000001
DataValue, 8.2, 0.10000200000000001
DataValue, 8.4, 0.10000400000000001
DataValue, 8.6, 0.10000200000000001
DataValue, 8.8, 0.10000200000000001
DataValue, 9, 0.10000600000000001
DataValue, 9.2000000000000011, 0.10000200000000001
DataValue, 9.4, 0.10000200000000001
DataValue, 9.6, 0.10000200000000001
DataValue, 9.8, 0.10000400000000001
DataValue, 10, 0.10000400000000001
DataValue, 10.200000000000001, 0.10000400000000001
DataValue, 10.4, 0.10000400000000001
DataValue, 10.6, 0.10000200000000001
DataValue, 10.8, 0.10000400000000001
DataValue, 11, 0.10000600000000001
DataValue, 11.200000000000001, 0.10000200000000001
DataValue, 11.4, 0.10000600000000001
DataValue, 11.6, 0.10000400000000001
DataValue, 11.8, 0.10000400000000001
DataValue, 12, 0.10000400000000001
DataValue, 12.200000000000001, 0.10000600000000001
DataValue, 12.4, 0.10000200000000001
DataValue, 12.6, 0.10000400000000001
DataValue, 12.8, 0.10000600000000001
DataValue, 13, 0.10000400000000001
DataValue, 13.200000000000001, 0.10000200000000001
DataValue, 13.4, 0.10000400000000001
DataValue, 13.6, 0.10000400000000001
DataValue, 13.8, 0.10000200000000001
DataValue, 14, 0.10000600000000001
DataValue, 14.200000000000001, 0.10000400000000001
DataValue, 14.4, 0.10000600000000001
DataValue, 14.6, 0.10000200000000001
DataValue, 14.8, 0.10000400000000001
DataValue, 15, 0.10000200000000001
DataValue, 15.200000000000001, 0.10000200000000001
DataValue, 15.4, 0.10000400000000001
DataValue, 15.6, 0.10000600000000001
DataValue, 15.8, 0.10000400000000001
DataValue, 16, 0.10000400000000001
DataValue, 16.2, 0.10000400000000001
DataValue, 16.4, 0.10000200000000001
DataValue, 16.6, 0.10000600000000001
DataValue, 16.8, 0.10000600000000001
DataValue, 17, 0.10000400000000001
DataValue, 17.2, 0.10000200000000001
DataValue, 17.400000000000002, 0.10000400000000001
DataValue, 17.6, 0.10000400000000001
DataValue, 17.8, 0.10000400000000001
DataValue, 18, 0.10000400000000001
DataValue, 18.2, 0.10000400000000001
DataValue, 18.400000000000002, 0.10000600000000001
DataValue, 18.6, 0.10000400000000001
DataValue, 18.8, 0.10000400000000001
DataValue, 19, 0.10000200000000001
DataValue, 19.2, 0.10000200000000001
DataValue, 19.400000000000002, 0.10000400000000001
DataValue, 19.6, 0.10000400000000001
DataValue, 19.8, 0.10000400000000001
DataValue, 20, 0.10000200000000001