
SetupTitle, Breakdown
PrimitiveTest, I/V Sweep
TestParameter, Context.MainFrame, B1500A
TestParameter, Channel.UnitType, SMU, SMU, SMU
TestParameter, Channel.Unit, SMU1:MP, SMU3:MP, SMU4:MP
TestParameter, Channel.IName, I1, I3, I2
TestParameter, Channel.VName, V1, V3, V2
TestParameter, Channel.Mode, COMMON, V, COMMON
TestParameter, Channel.Func, CONST, VAR1, CONST
TestParameter, Channel.Index, 
TestParameter, Channel.Time, 
TestParameter, Measurement.Port.Unit, SMU1:MP, SMU3:MP, SMU4:MP
TestParameter, Measurement.Port.SeriesResistor, NONE, NONE, NONE
TestParameter, Measurement.Port.Filter, ON, ON, ON
TestParameter, Measurement.Port.OutputVoltageComparison, 0, 0, 0
TestParameter, Measurement.Primary.Locus, Single
TestParameter, Measurement.Primary.Scale, LINEAR
TestParameter, Measurement.Primary.Start, 0
TestParameter, Measurement.Primary.Stop, 40
TestParameter, Measurement.Primary.Step, 0.4
TestParameter, Measurement.Primary.Compliance, 0.05
TestParameter, Measurement.Primary.PowerCompliance, 0
TestParameter, Measurement.Aborting.Condition, CONTINUE AT ANY
TestParameter, Measurement.PostOutput.Value, START
TestParameter, Measurement.PostOutput.Retention, OFF
TestParameter, Measurement.Bias.Source, 0, 0, 0
TestParameter, Measurement.Bias.Compliance, 0.1, 0.05, 0.1
TestParameter, Measurement.Monitor.Unit, SMU1:MP, SMU3:MP, SMU4:MP
TestParameter, Measurement.Monitor.Adc, HR ADC, HR ADC, HR ADC
TestParameter, Measurement.Monitor.Measurement, Compliance Side, Compliance Side, Compliance Side
TestParameter, Measurement.Monitor.RangingMode, LIMITED, LIMITED, LIMITED
TestParameter, Measurement.Monitor.RangeBoundary, 1nA, 1nA, 1nA
TestParameter, Measurement.Monitor.RangeRating, BY FULL RANGE, BY FULL RANGE, BY FULL RANGE
TestParameter, Measurement.Monitor.RangeRatingCoeff, 50, 50, 50
TestParameter, Measurement.Timing.Hold, 0
TestParameter, Measurement.Timing.Delay, 0
TestParameter, Measurement.Adc.HighSpeed.Mode, AUTO
TestParameter, Measurement.Adc.HighSpeed.Coeff, 1
TestParameter, Measurement.Adc.HighResolution.AutoZero, OFF
TestParameter, Measurement.Adc.HighResolution.Mode, AUTO
TestParameter, Measurement.Adc.HighResolution.Coeff, 6
TestParameter, Measurement.WaitTime.Source.Coeff, 1
TestParameter, Measurement.WaitTime.Source.Offset, 0
TestParameter, Measurement.WaitTime.Monitor.Coeff, 1
TestParameter, Measurement.WaitTime.Monitor.Offset, 0
TestParameter, Output.Graph.Enabled, true
TestParameter, Output.Graph.AutoScaling, false
TestParameter, Output.Graph.XAxis.Data, V3
TestParameter, Output.Graph.XAxis.Scale, Linear
TestParameter, Output.Graph.XAxis.Left, 0
TestParameter, Output.Graph.XAxis.Right, 20
TestParameter, Output.Graph.XAxis.RunTimeAutoScale, true
TestParameter, Output.Graph.YAxis.Data, I3
TestParameter, Output.Graph.YAxis.Scale, Linear
TestParameter, Output.Graph.YAxis.Bottom, -0.1
TestParameter, Output.Graph.YAxis.Top, 0.1
TestParameter, Output.Graph.YAxis.Group, 
TestParameter, Output.Graph.YAxis.RunTimeAutoScale, true
TestParameter, AutoAnalysis.Interpolation, false
TestParameter, AutoAnalysis.Line1.Enabled, false
TestParameter, AutoAnalysis.Line1.Type, 1
TestParameter, AutoAnalysis.Line1.Fix, True
TestParameter, AutoAnalysis.Line1.YAxis, 0
TestParameter, AutoAnalysis.Line1.Point1.Type, 0
TestParameter, AutoAnalysis.Line1.Point1.XY.X, 
TestParameter, AutoAnalysis.Line1.Point1.XY.Y, 
TestParameter, AutoAnalysis.Line1.Point1.Data.Var, 
TestParameter, AutoAnalysis.Line1.Point1.Data.Condition, 
TestParameter, AutoAnalysis.Line1.Point1.Data.Start, false
TestParameter, AutoAnalysis.Line1.Point1.Data.StartVar, 
TestParameter, AutoAnalysis.Line1.Point1.Data.StartCondition, 
TestParameter, AutoAnalysis.Line1.Point2.Type, 0
TestParameter, AutoAnalysis.Line1.Point2.XY.X, 
TestParameter, AutoAnalysis.Line1.Point2.XY.Y, 
TestParameter, AutoAnalysis.Line1.Point2.Data.Var, 
TestParameter, AutoAnalysis.Line1.Point2.Data.Condition, 
TestParameter, AutoAnalysis.Line1.Point2.Data.Start, false
TestParameter, AutoAnalysis.Line1.Point2.Data.StartVar, 
TestParameter, AutoAnalysis.Line1.Point2.Data.StartCondition, 
TestParameter, AutoAnalysis.Line1.GradientExpr, 0
TestParameter, AutoAnalysis.Line2.Enabled, false
TestParameter, AutoAnalysis.Line2.Type, 1
TestParameter, AutoAnalysis.Line2.Fix, True
TestParameter, AutoAnalysis.Line2.YAxis, 0
TestParameter, AutoAnalysis.Line2.Point1.Type, 0
TestParameter, AutoAnalysis.Line2.Point1.XY.X, 
TestParameter, AutoAnalysis.Line2.Point1.XY.Y, 
TestParameter, AutoAnalysis.Line2.Point1.Data.Var, 
TestParameter, AutoAnalysis.Line2.Point1.Data.Condition, 
TestParameter, AutoAnalysis.Line2.Point1.Data.Start, false
TestParameter, AutoAnalysis.Line2.Point1.Data.StartVar, 
TestParameter, AutoAnalysis.Line2.Point1.Data.StartCondition, 
TestParameter, AutoAnalysis.Line2.Point2.Type, 0
TestParameter, AutoAnalysis.Line2.Point2.XY.X, 
TestParameter, AutoAnalysis.Line2.Point2.XY.Y, 
TestParameter, AutoAnalysis.Line2.Point2.Data.Var, 
TestParameter, AutoAnalysis.Line2.Point2.Data.Condition, 
TestParameter, AutoAnalysis.Line2.Point2.Data.Start, false
TestParameter, AutoAnalysis.Line2.Point2.Data.StartVar, 
TestParameter, AutoAnalysis.Line2.Point2.Data.StartCondition, 
TestParameter, AutoAnalysis.Line2.GradientExpr, 0
TestParameter, AutoAnalysis.Marker.Enabled, false
TestParameter, AutoAnalysis.Marker.Data.Var, 
TestParameter, AutoAnalysis.Marker.Data.Condition, 
TestParameter, AutoAnalysis.Marker.Data.Start, false
TestParameter, AutoAnalysis.Marker.Data.StartVar, 
TestParameter, AutoAnalysis.Marker.Data.StartCondition, 
MetaData, TestRecord.EntryPoint, true
MetaData, TestRecord.RecordTime, 11/15/2019 06:52:10
MetaData, TestRecord.TestTarget, Al_1.5_5
MetaData, TestRecord.IterationIndex, 1
MetaData, TestRecord.Preservation, true
MetaData, TestRecord.Flag, 
MetaData, TestRecord.Remarks, 
MetaData, TestRecord.LinkKey, 4f72fe5a-baf1-45bf-948a-27c96914b010
Dimension1, 101, 101
Dimension2, 1, 1
DataName, V3, I3
DataValue, 0, -7.44E-12
DataValue, 0.4, 2.9786E-09
DataValue, 0.8, 2.3431699999999998E-08
DataValue, 1.2, 1.5596E-07
DataValue, 1.6, 2.0238E-07
DataValue, 2, 2.3152E-07
DataValue, 2.4, 2.5852E-07
DataValue, 2.8000000000000003, 2.8919999999999997E-07
DataValue, 3.2, 3.281E-07
DataValue, 3.6, 3.6266E-07
DataValue, 4, 4.002E-07
DataValue, 4.4, 4.4582E-07
DataValue, 4.8, 4.9644E-07
DataValue, 5.2, 5.4973999999999994E-07
DataValue, 5.6000000000000005, 6.0608E-07
DataValue, 6, 6.647E-07
DataValue, 6.4, 7.3494E-07
DataValue, 6.8, 8.1284E-07
DataValue, 7.2, 8.9622E-07
DataValue, 7.6000000000000005, 9.9562E-07
DataValue, 8, 1.1326E-06
DataValue, 8.4, 1.6308000000000001E-06
DataValue, 8.8, 1.9189000000000004E-06
DataValue, 9.2000000000000011, 2.1891000000000004E-06
DataValue, 9.6, 2.9964000000000002E-06
DataValue, 10, 4.2462E-06
DataValue, 10.4, 5.7175000000000007E-06
DataValue, 10.8, 8.6987E-06
DataValue, 11.200000000000001, 0.00043202000000000003
DataValue, 11.6, 0.00069216
DataValue, 12, 0.0034802
DataValue, 12.4, 0.0046124
DataValue, 12.8, 0.0069764
DataValue, 13.200000000000001, 0.0095824
DataValue, 13.6, 0.015584
DataValue, 14, 0.018726000000000003
DataValue, 14.4, 0.023080000000000003
DataValue, 14.8, 0.027212000000000004
DataValue, 15.200000000000001, 0.030990000000000004
DataValue, 15.6, 0.036254
DataValue, 16, 0.041672
DataValue, 16.4, 0.046040000000000005
DataValue, 16.8, 0.050028
DataValue, 17.2, 0.050004000000000007
DataValue, 17.6, 0.05
DataValue, 18, 0.050036000000000004
DataValue, 18.400000000000002, 0.05
DataValue, 18.8, 0.049998000000000008
DataValue, 19.2, 0.050012
DataValue, 19.6, 0.050008000000000004
DataValue, 20, 0.049980000000000004
DataValue, 20.400000000000002, 0.050010000000000006
DataValue, 20.8, 0.050010000000000006
DataValue, 21.2, 0.049996000000000006
DataValue, 21.6, 0.049988000000000005
DataValue, 22, 0.050008000000000004
DataValue, 22.400000000000002, 0.049994000000000004
DataValue, 22.8, 0.050002000000000005
DataValue, 23.2, 0.050012
DataValue, 23.6, 0.050010000000000006
DataValue, 24, 0.050004000000000007
DataValue, 24.400000000000002, 0.050014
DataValue, 24.8, 0.050014
DataValue, 25.2, 0.050010000000000006
DataValue, 25.6, 0.050006
DataValue, 26, 0.050006
DataValue, 26.400000000000002, 0.050008000000000004
DataValue, 26.8, 0.050004000000000007
DataValue, 27.2, 0.050010000000000006
DataValue, 27.6, 0.050006
DataValue, 28, 0.049998000000000008
DataValue, 28.400000000000002, 0.050012
DataValue, 28.8, 0.050004000000000007
DataValue, 29.2, 0.049996000000000006
DataValue, 29.6, 0.050022000000000004
DataValue, 30, 0.050014
DataValue, 30.400000000000002, 0.050008000000000004
DataValue, 30.8, 0.050004000000000007
DataValue, 31.2, 0.049998000000000008
DataValue, 31.6, 0.050004000000000007
DataValue, 32, 0.05
DataValue, 32.4, 0.050006
DataValue, 32.8, 0.049990000000000007
DataValue, 33.2, 0.050012
DataValue, 33.6, 0.050010000000000006
DataValue, 34, 0.049996000000000006
DataValue, 34.4, 0.050016000000000005
DataValue, 34.800000000000004, 0.050010000000000006
DataValue, 35.2, 0.049994000000000004
DataValue, 35.6, 0.05
DataValue, 36, 0.050008000000000004
DataValue, 36.4, 0.050010000000000006
DataValue, 36.800000000000004, 0.050006
DataValue, 37.2, 0.050006
DataValue, 37.6, 0.05
DataValue, 38, 0.049998000000000008
DataValue, 38.4, 0.05
DataValue, 38.800000000000004, 0.049992
DataValue, 39.2, 0.050004000000000007
DataValue, 39.6, 0.050006
DataValue, 40, 0.050008000000000004