
SetupTitle, Breakdown
PrimitiveTest, I/V Sweep
TestParameter, Context.MainFrame, B1500A
TestParameter, Channel.UnitType, SMU, SMU, SMU
TestParameter, Channel.Unit, SMU1:MP, SMU3:MP, SMU4:MP
TestParameter, Channel.IName, I1, I3, I2
TestParameter, Channel.VName, V1, V3, V2
TestParameter, Channel.Mode, COMMON, V, COMMON
TestParameter, Channel.Func, CONST, VAR1, CONST
TestParameter, Channel.Index, 
TestParameter, Channel.Time, 
TestParameter, Measurement.Port.Unit, SMU1:MP, SMU3:MP, SMU4:MP
TestParameter, Measurement.Port.SeriesResistor, NONE, NONE, NONE
TestParameter, Measurement.Port.Filter, ON, ON, ON
TestParameter, Measurement.Port.OutputVoltageComparison, 0, 0, 0
TestParameter, Measurement.Primary.Locus, Single
TestParameter, Measurement.Primary.Scale, LINEAR
TestParameter, Measurement.Primary.Start, 0
TestParameter, Measurement.Primary.Stop, 20
TestParameter, Measurement.Primary.Step, 0.2
TestParameter, Measurement.Primary.Compliance, 0.1
TestParameter, Measurement.Primary.PowerCompliance, 0
TestParameter, Measurement.Aborting.Condition, CONTINUE AT ANY
TestParameter, Measurement.PostOutput.Value, START
TestParameter, Measurement.PostOutput.Retention, OFF
TestParameter, Measurement.Bias.Source, 0, 0, 0
TestParameter, Measurement.Bias.Compliance, 0.1, 0.1, 0.1
TestParameter, Measurement.Monitor.Unit, SMU1:MP, SMU3:MP, SMU4:MP
TestParameter, Measurement.Monitor.Adc, HR ADC, HR ADC, HR ADC
TestParameter, Measurement.Monitor.Measurement, Compliance Side, Compliance Side, Compliance Side
TestParameter, Measurement.Monitor.RangingMode, LIMITED, LIMITED, LIMITED
TestParameter, Measurement.Monitor.RangeBoundary, 1nA, 1nA, 1nA
TestParameter, Measurement.Monitor.RangeRating, BY FULL RANGE, BY FULL RANGE, BY FULL RANGE
TestParameter, Measurement.Monitor.RangeRatingCoeff, 50, 50, 50
TestParameter, Measurement.Timing.Hold, 0
TestParameter, Measurement.Timing.Delay, 0
TestParameter, Measurement.Adc.HighSpeed.Mode, AUTO
TestParameter, Measurement.Adc.HighSpeed.Coeff, 1
TestParameter, Measurement.Adc.HighResolution.AutoZero, OFF
TestParameter, Measurement.Adc.HighResolution.Mode, AUTO
TestParameter, Measurement.Adc.HighResolution.Coeff, 6
TestParameter, Measurement.WaitTime.Source.Coeff, 1
TestParameter, Measurement.WaitTime.Source.Offset, 0
TestParameter, Measurement.WaitTime.Monitor.Coeff, 1
TestParameter, Measurement.WaitTime.Monitor.Offset, 0
TestParameter, Output.Graph.Enabled, true
TestParameter, Output.Graph.AutoScaling, false
TestParameter, Output.Graph.XAxis.Data, V3
TestParameter, Output.Graph.XAxis.Scale, Linear
TestParameter, Output.Graph.XAxis.Left, 0
TestParameter, Output.Graph.XAxis.Right, 20
TestParameter, Output.Graph.XAxis.RunTimeAutoScale, true
TestParameter, Output.Graph.YAxis.Data, I3
TestParameter, Output.Graph.YAxis.Scale, Linear
TestParameter, Output.Graph.YAxis.Bottom, -0.1
TestParameter, Output.Graph.YAxis.Top, 0.1
TestParameter, Output.Graph.YAxis.Group, 
TestParameter, Output.Graph.YAxis.RunTimeAutoScale, true
TestParameter, AutoAnalysis.Interpolation, false
TestParameter, AutoAnalysis.Line1.Enabled, false
TestParameter, AutoAnalysis.Line1.Type, 1
TestParameter, AutoAnalysis.Line1.Fix, True
TestParameter, AutoAnalysis.Line1.YAxis, 0
TestParameter, AutoAnalysis.Line1.Point1.Type, 0
TestParameter, AutoAnalysis.Line1.Point1.XY.X, 
TestParameter, AutoAnalysis.Line1.Point1.XY.Y, 
TestParameter, AutoAnalysis.Line1.Point1.Data.Var, 
TestParameter, AutoAnalysis.Line1.Point1.Data.Condition, 
TestParameter, AutoAnalysis.Line1.Point1.Data.Start, false
TestParameter, AutoAnalysis.Line1.Point1.Data.StartVar, 
TestParameter, AutoAnalysis.Line1.Point1.Data.StartCondition, 
TestParameter, AutoAnalysis.Line1.Point2.Type, 0
TestParameter, AutoAnalysis.Line1.Point2.XY.X, 
TestParameter, AutoAnalysis.Line1.Point2.XY.Y, 
TestParameter, AutoAnalysis.Line1.Point2.Data.Var, 
TestParameter, AutoAnalysis.Line1.Point2.Data.Condition, 
TestParameter, AutoAnalysis.Line1.Point2.Data.Start, false
TestParameter, AutoAnalysis.Line1.Point2.Data.StartVar, 
TestParameter, AutoAnalysis.Line1.Point2.Data.StartCondition, 
TestParameter, AutoAnalysis.Line1.GradientExpr, 0
TestParameter, AutoAnalysis.Line2.Enabled, false
TestParameter, AutoAnalysis.Line2.Type, 1
TestParameter, AutoAnalysis.Line2.Fix, True
TestParameter, AutoAnalysis.Line2.YAxis, 0
TestParameter, AutoAnalysis.Line2.Point1.Type, 0
TestParameter, AutoAnalysis.Line2.Point1.XY.X, 
TestParameter, AutoAnalysis.Line2.Point1.XY.Y, 
TestParameter, AutoAnalysis.Line2.Point1.Data.Var, 
TestParameter, AutoAnalysis.Line2.Point1.Data.Condition, 
TestParameter, AutoAnalysis.Line2.Point1.Data.Start, false
TestParameter, AutoAnalysis.Line2.Point1.Data.StartVar, 
TestParameter, AutoAnalysis.Line2.Point1.Data.StartCondition, 
TestParameter, AutoAnalysis.Line2.Point2.Type, 0
TestParameter, AutoAnalysis.Line2.Point2.XY.X, 
TestParameter, AutoAnalysis.Line2.Point2.XY.Y, 
TestParameter, AutoAnalysis.Line2.Point2.Data.Var, 
TestParameter, AutoAnalysis.Line2.Point2.Data.Condition, 
TestParameter, AutoAnalysis.Line2.Point2.Data.Start, false
TestParameter, AutoAnalysis.Line2.Point2.Data.StartVar, 
TestParameter, AutoAnalysis.Line2.Point2.Data.StartCondition, 
TestParameter, AutoAnalysis.Line2.GradientExpr, 0
TestParameter, AutoAnalysis.Marker.Enabled, false
TestParameter, AutoAnalysis.Marker.Data.Var, 
TestParameter, AutoAnalysis.Marker.Data.Condition, 
TestParameter, AutoAnalysis.Marker.Data.Start, false
TestParameter, AutoAnalysis.Marker.Data.StartVar, 
TestParameter, AutoAnalysis.Marker.Data.StartCondition, 
MetaData, TestRecord.EntryPoint, true
MetaData, TestRecord.RecordTime, 11/15/2019 04:39:25
MetaData, TestRecord.TestTarget, Al2O3_0_10
MetaData, TestRecord.IterationIndex, 5
MetaData, TestRecord.Preservation, true
MetaData, TestRecord.Flag, 
MetaData, TestRecord.Remarks, 
MetaData, TestRecord.LinkKey, b8686d83-884f-468a-a1ed-970f51e3da39
Dimension1, 101, 101
Dimension2, 1, 1
DataName, V3, I3
DataValue, 0, -5.9200000000000006E-12
DataValue, 0.2, 1.2000000000000002E-13
DataValue, 0.4, 5.48E-12
DataValue, 0.6, 6.7800000000000006E-12
DataValue, 0.8, 6.9500000000000009E-12
DataValue, 1, 8.83E-12
DataValue, 1.2, 9.7000000000000011E-12
DataValue, 1.4000000000000001, 1.291E-11
DataValue, 1.6, 1.9090000000000002E-11
DataValue, 1.8, 2.522E-11
DataValue, 2, 3.6260000000000006E-11
DataValue, 2.2, 5.1190000000000006E-11
DataValue, 2.4, 6.739E-11
DataValue, 2.6, 1.1494E-10
DataValue, 2.8000000000000003, 2.4169E-10
DataValue, 3, 5.955400000000001E-10
DataValue, 3.2, 1.562E-09
DataValue, 3.4, 3.7476E-09
DataValue, 3.6, 8.578E-09
DataValue, 3.8000000000000003, 2.0125999999999998E-08
DataValue, 4, 4.8365599999999996E-08
DataValue, 4.2, 8.35428E-08
DataValue, 4.4, 1.6436E-07
DataValue, 4.6000000000000005, 3.5158E-07
DataValue, 4.8, 6.776E-07
DataValue, 5, 6.7844E-07
DataValue, 5.2, 1.0143000000000002E-06
DataValue, 5.4, 1.9646000000000002E-06
DataValue, 5.6000000000000005, 3.5467000000000003E-06
DataValue, 5.8, 5.9057000000000009E-06
DataValue, 6, 9.1101000000000011E-06
DataValue, 6.2, 7.4301000000000011E-06
DataValue, 6.4, 9.1051E-06
DataValue, 6.6000000000000005, 1.2378E-05
DataValue, 6.8, 2.1414000000000002E-05
DataValue, 7, 3.4472E-05
DataValue, 7.2, 5.1138000000000004E-05
DataValue, 7.4, 7.1266E-05
DataValue, 7.6000000000000005, 9.3808000000000007E-05
DataValue, 7.8, 6.0476E-05
DataValue, 8, 9.762E-05
DataValue, 8.2, 9.551E-05
DataValue, 8.4, 0.00012166000000000001
DataValue, 8.6, 0.00019710000000000002
DataValue, 8.8, 0.00029936000000000003
DataValue, 9, 0.00042272
DataValue, 9.2000000000000011, 0.1
DataValue, 9.4, 0.099996000000000015
DataValue, 9.6, 0.10000200000000001
DataValue, 9.8, 0.1
DataValue, 10, 0.1
DataValue, 10.200000000000001, 0.10000600000000001
DataValue, 10.4, 0.099996000000000015
DataValue, 10.6, 0.099986
DataValue, 10.8, 0.10000800000000001
DataValue, 11, 0.10000800000000001
DataValue, 11.200000000000001, 0.099998
DataValue, 11.4, 0.099998
DataValue, 11.6, 0.10000400000000001
DataValue, 11.8, 0.10000600000000001
DataValue, 12, 0.10001600000000001
DataValue, 12.200000000000001, 0.10000400000000001
DataValue, 12.4, 0.100012
DataValue, 12.6, 0.099940000000000015
DataValue, 12.8, 0.099996000000000015
DataValue, 13, 0.100012
DataValue, 13.200000000000001, 0.100012
DataValue, 13.4, 0.10001600000000001
DataValue, 13.6, 0.099992000000000011
DataValue, 13.8, 0.10000200000000001
DataValue, 14, 0.10000400000000001
DataValue, 14.200000000000001, 0.10000800000000001
DataValue, 14.4, 0.099990000000000009
DataValue, 14.6, 0.10000200000000001
DataValue, 14.8, 0.099994000000000013
DataValue, 15, 0.100014
DataValue, 15.200000000000001, 0.099996000000000015
DataValue, 15.4, 0.10000600000000001
DataValue, 15.6, 0.10001600000000001
DataValue, 15.8, 0.10000200000000001
DataValue, 16, 0.10002200000000001
DataValue, 16.2, 0.099998
DataValue, 16.4, 0.10000600000000001
DataValue, 16.6, 0.099984
DataValue, 16.8, 0.099998
DataValue, 17, 0.099994000000000013
DataValue, 17.2, 0.10000800000000001
DataValue, 17.400000000000002, 0.100026
DataValue, 17.6, 0.099988000000000007
DataValue, 17.8, 0.099992000000000011
DataValue, 18, 0.100012
DataValue, 18.2, 0.10000200000000001
DataValue, 18.400000000000002, 0.099996000000000015
DataValue, 18.6, 0.099994000000000013
DataValue, 18.8, 0.10001000000000002
DataValue, 19, 0.099984
DataValue, 19.2, 0.10002000000000001
DataValue, 19.400000000000002, 0.100014
DataValue, 19.6, 0.10000200000000001
DataValue, 19.8, 0.10000200000000001
DataValue, 20, 0.10000600000000001