
SetupTitle, Breakdown
PrimitiveTest, I/V Sweep
TestParameter, Context.MainFrame, B1500A
TestParameter, Channel.UnitType, SMU, SMU, SMU
TestParameter, Channel.Unit, SMU1:MP, SMU3:MP, SMU4:MP
TestParameter, Channel.IName, I1, I3, I2
TestParameter, Channel.VName, V1, V3, V2
TestParameter, Channel.Mode, COMMON, V, COMMON
TestParameter, Channel.Func, CONST, VAR1, CONST
TestParameter, Channel.Index, 
TestParameter, Channel.Time, 
TestParameter, Measurement.Port.Unit, SMU1:MP, SMU3:MP, SMU4:MP
TestParameter, Measurement.Port.SeriesResistor, NONE, NONE, NONE
TestParameter, Measurement.Port.Filter, ON, ON, ON
TestParameter, Measurement.Port.OutputVoltageComparison, 0, 0, 0
TestParameter, Measurement.Primary.Locus, Single
TestParameter, Measurement.Primary.Scale, LINEAR
TestParameter, Measurement.Primary.Start, 0
TestParameter, Measurement.Primary.Stop, 40
TestParameter, Measurement.Primary.Step, 0.4
TestParameter, Measurement.Primary.Compliance, 0.05
TestParameter, Measurement.Primary.PowerCompliance, 0
TestParameter, Measurement.Aborting.Condition, CONTINUE AT ANY
TestParameter, Measurement.PostOutput.Value, START
TestParameter, Measurement.PostOutput.Retention, OFF
TestParameter, Measurement.Bias.Source, 0, 0, 0
TestParameter, Measurement.Bias.Compliance, 0.1, 0.05, 0.1
TestParameter, Measurement.Monitor.Unit, SMU1:MP, SMU3:MP, SMU4:MP
TestParameter, Measurement.Monitor.Adc, HR ADC, HR ADC, HR ADC
TestParameter, Measurement.Monitor.Measurement, Compliance Side, Compliance Side, Compliance Side
TestParameter, Measurement.Monitor.RangingMode, LIMITED, LIMITED, LIMITED
TestParameter, Measurement.Monitor.RangeBoundary, 1nA, 1nA, 1nA
TestParameter, Measurement.Monitor.RangeRating, BY FULL RANGE, BY FULL RANGE, BY FULL RANGE
TestParameter, Measurement.Monitor.RangeRatingCoeff, 50, 50, 50
TestParameter, Measurement.Timing.Hold, 0
TestParameter, Measurement.Timing.Delay, 0
TestParameter, Measurement.Adc.HighSpeed.Mode, AUTO
TestParameter, Measurement.Adc.HighSpeed.Coeff, 1
TestParameter, Measurement.Adc.HighResolution.AutoZero, OFF
TestParameter, Measurement.Adc.HighResolution.Mode, AUTO
TestParameter, Measurement.Adc.HighResolution.Coeff, 6
TestParameter, Measurement.WaitTime.Source.Coeff, 1
TestParameter, Measurement.WaitTime.Source.Offset, 0
TestParameter, Measurement.WaitTime.Monitor.Coeff, 1
TestParameter, Measurement.WaitTime.Monitor.Offset, 0
TestParameter, Output.Graph.Enabled, true
TestParameter, Output.Graph.AutoScaling, false
TestParameter, Output.Graph.XAxis.Data, V3
TestParameter, Output.Graph.XAxis.Scale, Linear
TestParameter, Output.Graph.XAxis.Left, 0
TestParameter, Output.Graph.XAxis.Right, 20
TestParameter, Output.Graph.XAxis.RunTimeAutoScale, true
TestParameter, Output.Graph.YAxis.Data, I3
TestParameter, Output.Graph.YAxis.Scale, Linear
TestParameter, Output.Graph.YAxis.Bottom, -0.1
TestParameter, Output.Graph.YAxis.Top, 0.1
TestParameter, Output.Graph.YAxis.Group, 
TestParameter, Output.Graph.YAxis.RunTimeAutoScale, true
TestParameter, AutoAnalysis.Interpolation, false
TestParameter, AutoAnalysis.Line1.Enabled, false
TestParameter, AutoAnalysis.Line1.Type, 1
TestParameter, AutoAnalysis.Line1.Fix, True
TestParameter, AutoAnalysis.Line1.YAxis, 0
TestParameter, AutoAnalysis.Line1.Point1.Type, 0
TestParameter, AutoAnalysis.Line1.Point1.XY.X, 
TestParameter, AutoAnalysis.Line1.Point1.XY.Y, 
TestParameter, AutoAnalysis.Line1.Point1.Data.Var, 
TestParameter, AutoAnalysis.Line1.Point1.Data.Condition, 
TestParameter, AutoAnalysis.Line1.Point1.Data.Start, false
TestParameter, AutoAnalysis.Line1.Point1.Data.StartVar, 
TestParameter, AutoAnalysis.Line1.Point1.Data.StartCondition, 
TestParameter, AutoAnalysis.Line1.Point2.Type, 0
TestParameter, AutoAnalysis.Line1.Point2.XY.X, 
TestParameter, AutoAnalysis.Line1.Point2.XY.Y, 
TestParameter, AutoAnalysis.Line1.Point2.Data.Var, 
TestParameter, AutoAnalysis.Line1.Point2.Data.Condition, 
TestParameter, AutoAnalysis.Line1.Point2.Data.Start, false
TestParameter, AutoAnalysis.Line1.Point2.Data.StartVar, 
TestParameter, AutoAnalysis.Line1.Point2.Data.StartCondition, 
TestParameter, AutoAnalysis.Line1.GradientExpr, 0
TestParameter, AutoAnalysis.Line2.Enabled, false
TestParameter, AutoAnalysis.Line2.Type, 1
TestParameter, AutoAnalysis.Line2.Fix, True
TestParameter, AutoAnalysis.Line2.YAxis, 0
TestParameter, AutoAnalysis.Line2.Point1.Type, 0
TestParameter, AutoAnalysis.Line2.Point1.XY.X, 
TestParameter, AutoAnalysis.Line2.Point1.XY.Y, 
TestParameter, AutoAnalysis.Line2.Point1.Data.Var, 
TestParameter, AutoAnalysis.Line2.Point1.Data.Condition, 
TestParameter, AutoAnalysis.Line2.Point1.Data.Start, false
TestParameter, AutoAnalysis.Line2.Point1.Data.StartVar, 
TestParameter, AutoAnalysis.Line2.Point1.Data.StartCondition, 
TestParameter, AutoAnalysis.Line2.Point2.Type, 0
TestParameter, AutoAnalysis.Line2.Point2.XY.X, 
TestParameter, AutoAnalysis.Line2.Point2.XY.Y, 
TestParameter, AutoAnalysis.Line2.Point2.Data.Var, 
TestParameter, AutoAnalysis.Line2.Point2.Data.Condition, 
TestParameter, AutoAnalysis.Line2.Point2.Data.Start, false
TestParameter, AutoAnalysis.Line2.Point2.Data.StartVar, 
TestParameter, AutoAnalysis.Line2.Point2.Data.StartCondition, 
TestParameter, AutoAnalysis.Line2.GradientExpr, 0
TestParameter, AutoAnalysis.Marker.Enabled, false
TestParameter, AutoAnalysis.Marker.Data.Var, 
TestParameter, AutoAnalysis.Marker.Data.Condition, 
TestParameter, AutoAnalysis.Marker.Data.Start, false
TestParameter, AutoAnalysis.Marker.Data.StartVar, 
TestParameter, AutoAnalysis.Marker.Data.StartCondition, 
MetaData, TestRecord.EntryPoint, true
MetaData, TestRecord.RecordTime, 11/15/2019 05:54:53
MetaData, TestRecord.TestTarget, Al_2.0_10_n
MetaData, TestRecord.IterationIndex, 2
MetaData, TestRecord.Preservation, true
MetaData, TestRecord.Flag, 
MetaData, TestRecord.Remarks, 
MetaData, TestRecord.LinkKey, 1066da65-60ba-4dab-ac5c-c747345e0482
Dimension1, 101, 101
Dimension2, 1, 1
DataName, V3, I3
DataValue, 0, -3.67E-12
DataValue, 0.4, 7.94E-12
DataValue, 0.8, 4.2050000000000006E-11
DataValue, 1.2, 3.9450000000000003E-11
DataValue, 1.6, 4.847E-11
DataValue, 2, 1.5033E-10
DataValue, 2.4, 5.1343E-09
DataValue, 2.8000000000000003, 1.3316E-07
DataValue, 3.2, 8.1758E-07
DataValue, 3.6, 2.9695E-06
DataValue, 4, 4.3928000000000005E-06
DataValue, 4.4, 5.8511000000000006E-06
DataValue, 4.8, 7.3901000000000006E-06
DataValue, 5.2, 9.0245000000000014E-06
DataValue, 5.6000000000000005, 1.0738700000000001E-05
DataValue, 6, 1.2202000000000001E-05
DataValue, 6.4, 1.413E-05
DataValue, 6.8, 1.6132E-05
DataValue, 7.2, 1.8218E-05
DataValue, 7.6000000000000005, 2.0376E-05
DataValue, 8, 2.2634E-05
DataValue, 8.4, 2.4942E-05
DataValue, 8.8, 2.7338E-05
DataValue, 9.2000000000000011, 2.983E-05
DataValue, 9.6, 3.2362E-05
DataValue, 10, 3.5022000000000005E-05
DataValue, 10.4, 3.7774E-05
DataValue, 10.8, 4.0606000000000004E-05
DataValue, 11.200000000000001, 4.3544E-05
DataValue, 11.6, 4.6608000000000005E-05
DataValue, 12, 4.982E-05
DataValue, 12.4, 5.3156000000000004E-05
DataValue, 12.8, 5.6652E-05
DataValue, 13.200000000000001, 6.03E-05
DataValue, 13.6, 0.00038774
DataValue, 14, 0.00039932000000000005
DataValue, 14.4, 0.00072674
DataValue, 14.8, 0.0032542
DataValue, 15.200000000000001, 0.0064192
DataValue, 15.6, 0.0085622
DataValue, 16, 0.017044
DataValue, 16.4, 0.021230000000000002
DataValue, 16.8, 0.024678000000000002
DataValue, 17.2, 0.02952
DataValue, 17.6, 0.033048
DataValue, 18, 0.036282
DataValue, 18.400000000000002, 0.03978
DataValue, 18.8, 0.043822000000000007
DataValue, 19.2, 0.048018000000000005
DataValue, 19.6, 0.050024000000000006
DataValue, 20, 0.050046000000000007
DataValue, 20.400000000000002, 0.049960000000000004
DataValue, 20.8, 0.050066000000000006
DataValue, 21.2, 0.049970000000000007
DataValue, 21.6, 0.050056
DataValue, 22, 0.050076
DataValue, 22.400000000000002, 0.050014
DataValue, 22.8, 0.049990000000000007
DataValue, 23.2, 0.050014
DataValue, 23.6, 0.050018000000000007
DataValue, 24, 0.049980000000000004
DataValue, 24.400000000000002, 0.049988000000000005
DataValue, 24.8, 0.050010000000000006
DataValue, 25.2, 0.049986
DataValue, 25.6, 0.050004000000000007
DataValue, 26, 0.050004000000000007
DataValue, 26.400000000000002, 0.050010000000000006
DataValue, 26.8, 0.049986
DataValue, 27.2, 0.049998000000000008
DataValue, 27.6, 0.050036000000000004
DataValue, 28, 0.050002000000000005
DataValue, 28.400000000000002, 0.050006
DataValue, 28.8, 0.050038000000000006
DataValue, 29.2, 0.05
DataValue, 29.6, 0.05002
DataValue, 30, 0.050026
DataValue, 30.400000000000002, 0.049974000000000005
DataValue, 30.8, 0.049974000000000005
DataValue, 31.2, 0.050030000000000005
DataValue, 31.6, 0.050010000000000006
DataValue, 32, 0.049996000000000006
DataValue, 32.4, 0.050002000000000005
DataValue, 32.8, 0.050004000000000007
DataValue, 33.2, 0.049992
DataValue, 33.6, 0.05
DataValue, 34, 0.050018000000000007
DataValue, 34.4, 0.050006
DataValue, 34.800000000000004, 0.049994000000000004
DataValue, 35.2, 0.050006
DataValue, 35.6, 0.049992
DataValue, 36, 0.049984000000000008
DataValue, 36.4, 0.050024000000000006
DataValue, 36.800000000000004, 0.049988000000000005
DataValue, 37.2, 0.050014
DataValue, 37.6, 0.05
DataValue, 38, 0.050008000000000004
DataValue, 38.4, 0.050010000000000006
DataValue, 38.800000000000004, 0.050006
DataValue, 39.2, 0.049998000000000008
DataValue, 39.6, 0.050004000000000007
DataValue, 40, 0.050042