
SetupTitle, Breakdown
PrimitiveTest, I/V Sweep
TestParameter, Context.MainFrame, B1500A
TestParameter, Channel.UnitType, SMU, SMU, SMU
TestParameter, Channel.Unit, SMU1:MP, SMU3:MP, SMU4:MP
TestParameter, Channel.IName, I1, I3, I2
TestParameter, Channel.VName, V1, V3, V2
TestParameter, Channel.Mode, COMMON, V, COMMON
TestParameter, Channel.Func, CONST, VAR1, CONST
TestParameter, Channel.Index, 
TestParameter, Channel.Time, 
TestParameter, Measurement.Port.Unit, SMU1:MP, SMU3:MP, SMU4:MP
TestParameter, Measurement.Port.SeriesResistor, NONE, NONE, NONE
TestParameter, Measurement.Port.Filter, ON, ON, ON
TestParameter, Measurement.Port.OutputVoltageComparison, 0, 0, 0
TestParameter, Measurement.Primary.Locus, Single
TestParameter, Measurement.Primary.Scale, LINEAR
TestParameter, Measurement.Primary.Start, 0
TestParameter, Measurement.Primary.Stop, 40
TestParameter, Measurement.Primary.Step, 0.4
TestParameter, Measurement.Primary.Compliance, 0.05
TestParameter, Measurement.Primary.PowerCompliance, 0
TestParameter, Measurement.Aborting.Condition, CONTINUE AT ANY
TestParameter, Measurement.PostOutput.Value, START
TestParameter, Measurement.PostOutput.Retention, OFF
TestParameter, Measurement.Bias.Source, 0, 0, 0
TestParameter, Measurement.Bias.Compliance, 0.1, 0.05, 0.1
TestParameter, Measurement.Monitor.Unit, SMU1:MP, SMU3:MP, SMU4:MP
TestParameter, Measurement.Monitor.Adc, HR ADC, HR ADC, HR ADC
TestParameter, Measurement.Monitor.Measurement, Compliance Side, Compliance Side, Compliance Side
TestParameter, Measurement.Monitor.RangingMode, LIMITED, LIMITED, LIMITED
TestParameter, Measurement.Monitor.RangeBoundary, 1nA, 1nA, 1nA
TestParameter, Measurement.Monitor.RangeRating, BY FULL RANGE, BY FULL RANGE, BY FULL RANGE
TestParameter, Measurement.Monitor.RangeRatingCoeff, 50, 50, 50
TestParameter, Measurement.Timing.Hold, 0
TestParameter, Measurement.Timing.Delay, 0
TestParameter, Measurement.Adc.HighSpeed.Mode, AUTO
TestParameter, Measurement.Adc.HighSpeed.Coeff, 1
TestParameter, Measurement.Adc.HighResolution.AutoZero, OFF
TestParameter, Measurement.Adc.HighResolution.Mode, AUTO
TestParameter, Measurement.Adc.HighResolution.Coeff, 6
TestParameter, Measurement.WaitTime.Source.Coeff, 1
TestParameter, Measurement.WaitTime.Source.Offset, 0
TestParameter, Measurement.WaitTime.Monitor.Coeff, 1
TestParameter, Measurement.WaitTime.Monitor.Offset, 0
TestParameter, Output.Graph.Enabled, true
TestParameter, Output.Graph.AutoScaling, false
TestParameter, Output.Graph.XAxis.Data, V3
TestParameter, Output.Graph.XAxis.Scale, Linear
TestParameter, Output.Graph.XAxis.Left, 0
TestParameter, Output.Graph.XAxis.Right, 20
TestParameter, Output.Graph.XAxis.RunTimeAutoScale, true
TestParameter, Output.Graph.YAxis.Data, I3
TestParameter, Output.Graph.YAxis.Scale, Linear
TestParameter, Output.Graph.YAxis.Bottom, -0.1
TestParameter, Output.Graph.YAxis.Top, 0.1
TestParameter, Output.Graph.YAxis.Group, 
TestParameter, Output.Graph.YAxis.RunTimeAutoScale, true
TestParameter, AutoAnalysis.Interpolation, false
TestParameter, AutoAnalysis.Line1.Enabled, false
TestParameter, AutoAnalysis.Line1.Type, 1
TestParameter, AutoAnalysis.Line1.Fix, True
TestParameter, AutoAnalysis.Line1.YAxis, 0
TestParameter, AutoAnalysis.Line1.Point1.Type, 0
TestParameter, AutoAnalysis.Line1.Point1.XY.X, 
TestParameter, AutoAnalysis.Line1.Point1.XY.Y, 
TestParameter, AutoAnalysis.Line1.Point1.Data.Var, 
TestParameter, AutoAnalysis.Line1.Point1.Data.Condition, 
TestParameter, AutoAnalysis.Line1.Point1.Data.Start, false
TestParameter, AutoAnalysis.Line1.Point1.Data.StartVar, 
TestParameter, AutoAnalysis.Line1.Point1.Data.StartCondition, 
TestParameter, AutoAnalysis.Line1.Point2.Type, 0
TestParameter, AutoAnalysis.Line1.Point2.XY.X, 
TestParameter, AutoAnalysis.Line1.Point2.XY.Y, 
TestParameter, AutoAnalysis.Line1.Point2.Data.Var, 
TestParameter, AutoAnalysis.Line1.Point2.Data.Condition, 
TestParameter, AutoAnalysis.Line1.Point2.Data.Start, false
TestParameter, AutoAnalysis.Line1.Point2.Data.StartVar, 
TestParameter, AutoAnalysis.Line1.Point2.Data.StartCondition, 
TestParameter, AutoAnalysis.Line1.GradientExpr, 0
TestParameter, AutoAnalysis.Line2.Enabled, false
TestParameter, AutoAnalysis.Line2.Type, 1
TestParameter, AutoAnalysis.Line2.Fix, True
TestParameter, AutoAnalysis.Line2.YAxis, 0
TestParameter, AutoAnalysis.Line2.Point1.Type, 0
TestParameter, AutoAnalysis.Line2.Point1.XY.X, 
TestParameter, AutoAnalysis.Line2.Point1.XY.Y, 
TestParameter, AutoAnalysis.Line2.Point1.Data.Var, 
TestParameter, AutoAnalysis.Line2.Point1.Data.Condition, 
TestParameter, AutoAnalysis.Line2.Point1.Data.Start, false
TestParameter, AutoAnalysis.Line2.Point1.Data.StartVar, 
TestParameter, AutoAnalysis.Line2.Point1.Data.StartCondition, 
TestParameter, AutoAnalysis.Line2.Point2.Type, 0
TestParameter, AutoAnalysis.Line2.Point2.XY.X, 
TestParameter, AutoAnalysis.Line2.Point2.XY.Y, 
TestParameter, AutoAnalysis.Line2.Point2.Data.Var, 
TestParameter, AutoAnalysis.Line2.Point2.Data.Condition, 
TestParameter, AutoAnalysis.Line2.Point2.Data.Start, false
TestParameter, AutoAnalysis.Line2.Point2.Data.StartVar, 
TestParameter, AutoAnalysis.Line2.Point2.Data.StartCondition, 
TestParameter, AutoAnalysis.Line2.GradientExpr, 0
TestParameter, AutoAnalysis.Marker.Enabled, false
TestParameter, AutoAnalysis.Marker.Data.Var, 
TestParameter, AutoAnalysis.Marker.Data.Condition, 
TestParameter, AutoAnalysis.Marker.Data.Start, false
TestParameter, AutoAnalysis.Marker.Data.StartVar, 
TestParameter, AutoAnalysis.Marker.Data.StartCondition, 
MetaData, TestRecord.EntryPoint, true
MetaData, TestRecord.RecordTime, 11/15/2019 05:55:58
MetaData, TestRecord.TestTarget, Al_2.0_10_n
MetaData, TestRecord.IterationIndex, 5
MetaData, TestRecord.Preservation, true
MetaData, TestRecord.Flag, 
MetaData, TestRecord.Remarks, 
MetaData, TestRecord.LinkKey, d8d5f8c2-9d9b-4fda-a0e6-49140b6d3edd
Dimension1, 101, 101
Dimension2, 1, 1
DataName, V3, I3
DataValue, 0, 1.6360000000000002E-11
DataValue, 0.4, 8.2800000000000011E-12
DataValue, 0.8, -3.3100000000000002E-12
DataValue, 1.2, 1.54E-11
DataValue, 1.6, 5.0500000000000007E-11
DataValue, 2, 3.0475E-10
DataValue, 2.4, 1.11505E-08
DataValue, 2.8000000000000003, 2.1242E-07
DataValue, 3.2, 1.3826000000000001E-06
DataValue, 3.6, 3.9047E-06
DataValue, 4, 5.4479000000000008E-06
DataValue, 4.4, 7.0758000000000009E-06
DataValue, 4.8, 8.7898E-06
DataValue, 5.2, 1.06087E-05
DataValue, 5.6000000000000005, 1.2118E-05
DataValue, 6, 1.4186000000000001E-05
DataValue, 6.4, 1.6328E-05
DataValue, 6.8, 1.8544E-05
DataValue, 7.2, 2.0846E-05
DataValue, 7.6000000000000005, 2.3224E-05
DataValue, 8, 2.5706E-05
DataValue, 8.4, 2.8250000000000002E-05
DataValue, 8.8, 3.0874E-05
DataValue, 9.2000000000000011, 3.3612E-05
DataValue, 9.6, 3.6406000000000003E-05
DataValue, 10, 3.9292E-05
DataValue, 10.4, 4.232E-05
DataValue, 10.8, 4.5482E-05
DataValue, 11.200000000000001, 4.8746000000000004E-05
DataValue, 11.6, 5.2164000000000004E-05
DataValue, 12, 5.575E-05
DataValue, 12.4, 0.0001026
DataValue, 12.8, 0.00010832
DataValue, 13.200000000000001, 0.00020946000000000002
DataValue, 13.6, 0.00029232
DataValue, 14, 0.00036794000000000003
DataValue, 14.4, 0.00072476000000000007
DataValue, 14.8, 0.0070594
DataValue, 15.200000000000001, 0.0078348
DataValue, 15.6, 0.0097768
DataValue, 16, 0.015278000000000002
DataValue, 16.4, 0.018212000000000002
DataValue, 16.8, 0.02083
DataValue, 17.2, 0.024612000000000002
DataValue, 17.6, 0.027752000000000002
DataValue, 18, 0.031736
DataValue, 18.400000000000002, 0.034738000000000005
DataValue, 18.8, 0.038534000000000006
DataValue, 19.2, 0.042122000000000007
DataValue, 19.6, 0.045644000000000004
DataValue, 20, 0.049298
DataValue, 20.400000000000002, 0.049876000000000004
DataValue, 20.8, 0.050012
DataValue, 21.2, 0.05002
DataValue, 21.6, 0.050036000000000004
DataValue, 22, 0.050012
DataValue, 22.400000000000002, 0.05004
DataValue, 22.8, 0.049968000000000005
DataValue, 23.2, 0.049980000000000004
DataValue, 23.6, 0.050012
DataValue, 24, 0.049982000000000006
DataValue, 24.400000000000002, 0.049998000000000008
DataValue, 24.8, 0.050030000000000005
DataValue, 25.2, 0.049994000000000004
DataValue, 25.6, 0.050026
DataValue, 26, 0.049996000000000006
DataValue, 26.400000000000002, 0.050006
DataValue, 26.8, 0.049998000000000008
DataValue, 27.2, 0.050014
DataValue, 27.6, 0.050030000000000005
DataValue, 28, 0.050002000000000005
DataValue, 28.400000000000002, 0.049992
DataValue, 28.8, 0.049992
DataValue, 29.2, 0.049980000000000004
DataValue, 29.6, 0.050008000000000004
DataValue, 30, 0.050026
DataValue, 30.400000000000002, 0.050018000000000007
DataValue, 30.8, 0.05002
DataValue, 31.2, 0.050006
DataValue, 31.6, 0.050022000000000004
DataValue, 32, 0.049998000000000008
DataValue, 32.4, 0.049980000000000004
DataValue, 32.8, 0.050030000000000005
DataValue, 33.2, 0.049994000000000004
DataValue, 33.6, 0.050014
DataValue, 34, 0.05002
DataValue, 34.4, 0.05002
DataValue, 34.800000000000004, 0.050004000000000007
DataValue, 35.2, 0.050014
DataValue, 35.6, 0.049996000000000006
DataValue, 36, 0.049990000000000007
DataValue, 36.4, 0.049998000000000008
DataValue, 36.800000000000004, 0.049988000000000005
DataValue, 37.2, 0.049994000000000004
DataValue, 37.6, 0.049966
DataValue, 38, 0.049960000000000004
DataValue, 38.4, 0.049986
DataValue, 38.800000000000004, 0.049978
DataValue, 39.2, 0.049984000000000008
DataValue, 39.6, 0.050032000000000007
DataValue, 40, 0.049990000000000007