
SetupTitle, Breakdown
PrimitiveTest, I/V Sweep
TestParameter, Context.MainFrame, B1500A
TestParameter, Channel.UnitType, SMU, SMU, SMU
TestParameter, Channel.Unit, SMU1:MP, SMU3:MP, SMU4:MP
TestParameter, Channel.IName, I1, I3, I2
TestParameter, Channel.VName, V1, V3, V2
TestParameter, Channel.Mode, COMMON, V, COMMON
TestParameter, Channel.Func, CONST, VAR1, CONST
TestParameter, Channel.Index, 
TestParameter, Channel.Time, 
TestParameter, Measurement.Port.Unit, SMU1:MP, SMU3:MP, SMU4:MP
TestParameter, Measurement.Port.SeriesResistor, NONE, NONE, NONE
TestParameter, Measurement.Port.Filter, ON, ON, ON
TestParameter, Measurement.Port.OutputVoltageComparison, 0, 0, 0
TestParameter, Measurement.Primary.Locus, Single
TestParameter, Measurement.Primary.Scale, LINEAR
TestParameter, Measurement.Primary.Start, 0
TestParameter, Measurement.Primary.Stop, 40
TestParameter, Measurement.Primary.Step, 0.4
TestParameter, Measurement.Primary.Compliance, 0.05
TestParameter, Measurement.Primary.PowerCompliance, 0
TestParameter, Measurement.Aborting.Condition, CONTINUE AT ANY
TestParameter, Measurement.PostOutput.Value, START
TestParameter, Measurement.PostOutput.Retention, OFF
TestParameter, Measurement.Bias.Source, 0, 0, 0
TestParameter, Measurement.Bias.Compliance, 0.1, 0.05, 0.1
TestParameter, Measurement.Monitor.Unit, SMU1:MP, SMU3:MP, SMU4:MP
TestParameter, Measurement.Monitor.Adc, HR ADC, HR ADC, HR ADC
TestParameter, Measurement.Monitor.Measurement, Compliance Side, Compliance Side, Compliance Side
TestParameter, Measurement.Monitor.RangingMode, LIMITED, LIMITED, LIMITED
TestParameter, Measurement.Monitor.RangeBoundary, 1nA, 1nA, 1nA
TestParameter, Measurement.Monitor.RangeRating, BY FULL RANGE, BY FULL RANGE, BY FULL RANGE
TestParameter, Measurement.Monitor.RangeRatingCoeff, 50, 50, 50
TestParameter, Measurement.Timing.Hold, 0
TestParameter, Measurement.Timing.Delay, 0
TestParameter, Measurement.Adc.HighSpeed.Mode, AUTO
TestParameter, Measurement.Adc.HighSpeed.Coeff, 1
TestParameter, Measurement.Adc.HighResolution.AutoZero, OFF
TestParameter, Measurement.Adc.HighResolution.Mode, AUTO
TestParameter, Measurement.Adc.HighResolution.Coeff, 6
TestParameter, Measurement.WaitTime.Source.Coeff, 1
TestParameter, Measurement.WaitTime.Source.Offset, 0
TestParameter, Measurement.WaitTime.Monitor.Coeff, 1
TestParameter, Measurement.WaitTime.Monitor.Offset, 0
TestParameter, Output.Graph.Enabled, true
TestParameter, Output.Graph.AutoScaling, false
TestParameter, Output.Graph.XAxis.Data, V3
TestParameter, Output.Graph.XAxis.Scale, Linear
TestParameter, Output.Graph.XAxis.Left, 0
TestParameter, Output.Graph.XAxis.Right, 20
TestParameter, Output.Graph.XAxis.RunTimeAutoScale, true
TestParameter, Output.Graph.YAxis.Data, I3
TestParameter, Output.Graph.YAxis.Scale, Linear
TestParameter, Output.Graph.YAxis.Bottom, -0.1
TestParameter, Output.Graph.YAxis.Top, 0.1
TestParameter, Output.Graph.YAxis.Group, 
TestParameter, Output.Graph.YAxis.RunTimeAutoScale, true
TestParameter, AutoAnalysis.Interpolation, false
TestParameter, AutoAnalysis.Line1.Enabled, false
TestParameter, AutoAnalysis.Line1.Type, 1
TestParameter, AutoAnalysis.Line1.Fix, True
TestParameter, AutoAnalysis.Line1.YAxis, 0
TestParameter, AutoAnalysis.Line1.Point1.Type, 0
TestParameter, AutoAnalysis.Line1.Point1.XY.X, 
TestParameter, AutoAnalysis.Line1.Point1.XY.Y, 
TestParameter, AutoAnalysis.Line1.Point1.Data.Var, 
TestParameter, AutoAnalysis.Line1.Point1.Data.Condition, 
TestParameter, AutoAnalysis.Line1.Point1.Data.Start, false
TestParameter, AutoAnalysis.Line1.Point1.Data.StartVar, 
TestParameter, AutoAnalysis.Line1.Point1.Data.StartCondition, 
TestParameter, AutoAnalysis.Line1.Point2.Type, 0
TestParameter, AutoAnalysis.Line1.Point2.XY.X, 
TestParameter, AutoAnalysis.Line1.Point2.XY.Y, 
TestParameter, AutoAnalysis.Line1.Point2.Data.Var, 
TestParameter, AutoAnalysis.Line1.Point2.Data.Condition, 
TestParameter, AutoAnalysis.Line1.Point2.Data.Start, false
TestParameter, AutoAnalysis.Line1.Point2.Data.StartVar, 
TestParameter, AutoAnalysis.Line1.Point2.Data.StartCondition, 
TestParameter, AutoAnalysis.Line1.GradientExpr, 0
TestParameter, AutoAnalysis.Line2.Enabled, false
TestParameter, AutoAnalysis.Line2.Type, 1
TestParameter, AutoAnalysis.Line2.Fix, True
TestParameter, AutoAnalysis.Line2.YAxis, 0
TestParameter, AutoAnalysis.Line2.Point1.Type, 0
TestParameter, AutoAnalysis.Line2.Point1.XY.X, 
TestParameter, AutoAnalysis.Line2.Point1.XY.Y, 
TestParameter, AutoAnalysis.Line2.Point1.Data.Var, 
TestParameter, AutoAnalysis.Line2.Point1.Data.Condition, 
TestParameter, AutoAnalysis.Line2.Point1.Data.Start, false
TestParameter, AutoAnalysis.Line2.Point1.Data.StartVar, 
TestParameter, AutoAnalysis.Line2.Point1.Data.StartCondition, 
TestParameter, AutoAnalysis.Line2.Point2.Type, 0
TestParameter, AutoAnalysis.Line2.Point2.XY.X, 
TestParameter, AutoAnalysis.Line2.Point2.XY.Y, 
TestParameter, AutoAnalysis.Line2.Point2.Data.Var, 
TestParameter, AutoAnalysis.Line2.Point2.Data.Condition, 
TestParameter, AutoAnalysis.Line2.Point2.Data.Start, false
TestParameter, AutoAnalysis.Line2.Point2.Data.StartVar, 
TestParameter, AutoAnalysis.Line2.Point2.Data.StartCondition, 
TestParameter, AutoAnalysis.Line2.GradientExpr, 0
TestParameter, AutoAnalysis.Marker.Enabled, false
TestParameter, AutoAnalysis.Marker.Data.Var, 
TestParameter, AutoAnalysis.Marker.Data.Condition, 
TestParameter, AutoAnalysis.Marker.Data.Start, false
TestParameter, AutoAnalysis.Marker.Data.StartVar, 
TestParameter, AutoAnalysis.Marker.Data.StartCondition, 
MetaData, TestRecord.EntryPoint, true
MetaData, TestRecord.RecordTime, 11/15/2019 06:32:50
MetaData, TestRecord.TestTarget, Al_1.0_10
MetaData, TestRecord.IterationIndex, 4
MetaData, TestRecord.Preservation, true
MetaData, TestRecord.Flag, 
MetaData, TestRecord.Remarks, 
MetaData, TestRecord.LinkKey, d34ca276-dd00-42ff-8d96-7dcf4a2901bb
Dimension1, 101, 101
Dimension2, 1, 1
DataName, V3, I3
DataValue, 0, 8.62E-12
DataValue, 0.4, 9.363E-11
DataValue, 0.8, 1.81E-11
DataValue, 1.2, -1.0006E-10
DataValue, 1.6, 2.853E-11
DataValue, 2, 3.8807000000000004E-10
DataValue, 2.4, 3.4657E-09
DataValue, 2.8000000000000003, 3.14682E-08
DataValue, 3.2, 1.3244E-07
DataValue, 3.6, 1.4706E-07
DataValue, 4, 1.444E-07
DataValue, 4.4, 1.3936E-07
DataValue, 4.8, 1.3892E-07
DataValue, 5.2, 1.4626E-07
DataValue, 5.6000000000000005, 1.4932E-07
DataValue, 6, 1.4358E-07
DataValue, 6.4, 1.4116E-07
DataValue, 6.8, 1.449E-07
DataValue, 7.2, 1.5017999999999999E-07
DataValue, 7.6000000000000005, 1.4919999999999999E-07
DataValue, 8, 1.4417999999999999E-07
DataValue, 8.4, 1.427E-07
DataValue, 8.8, 1.5112E-07
DataValue, 9.2000000000000011, 1.5031999999999999E-07
DataValue, 9.6, 1.4472E-07
DataValue, 10, 1.5254E-07
DataValue, 10.4, 1.5516E-07
DataValue, 10.8, 1.5274E-07
DataValue, 11.200000000000001, 1.5068E-07
DataValue, 11.6, 1.5598E-07
DataValue, 12, 1.641E-07
DataValue, 12.4, 1.626E-07
DataValue, 12.8, 1.599E-07
DataValue, 13.200000000000001, 1.6174E-07
DataValue, 13.6, 1.7048E-07
DataValue, 14, 1.7884E-07
DataValue, 14.4, 1.7422E-07
DataValue, 14.8, 1.7614E-07
DataValue, 15.200000000000001, 1.9016E-07
DataValue, 15.6, 1.914E-07
DataValue, 16, 1.874E-07
DataValue, 16.4, 2.0016E-07
DataValue, 16.8, 2.1086E-07
DataValue, 17.2, 2.0673999999999998E-07
DataValue, 17.6, 2.1118E-07
DataValue, 18, 2.2974E-07
DataValue, 18.400000000000002, 2.3268E-07
DataValue, 18.8, 2.3234E-07
DataValue, 19.2, 2.3724E-07
DataValue, 19.6, 2.5259999999999997E-07
DataValue, 20, 2.7004E-07
DataValue, 20.400000000000002, 2.7692E-07
DataValue, 20.8, 2.7646E-07
DataValue, 21.2, 2.8807999999999997E-07
DataValue, 21.6, 3.1428E-07
DataValue, 22, 3.1592E-07
DataValue, 22.400000000000002, 3.2138E-07
DataValue, 22.8, 3.4604E-07
DataValue, 23.2, 3.715E-07
DataValue, 23.6, 3.6962E-07
DataValue, 24, 3.9016E-07
DataValue, 24.400000000000002, 4.257E-07
DataValue, 24.8, 4.4835999999999997E-07
DataValue, 25.2, 4.5703999999999997E-07
DataValue, 25.6, 4.6992E-07
DataValue, 26, 5.0822E-07
DataValue, 26.400000000000002, 5.6154E-07
DataValue, 26.8, 5.6826E-07
DataValue, 27.2, 6.0124E-07
DataValue, 27.6, 6.6682E-07
DataValue, 28, 7.2676E-07
DataValue, 28.400000000000002, 7.6096E-07
DataValue, 28.8, 7.9498E-07
DataValue, 29.2, 8.6256E-07
DataValue, 29.6, 9.7168E-07
DataValue, 30, 1.09116E-06
DataValue, 30.400000000000002, 1.1160000000000002E-06
DataValue, 30.8, 1.2928000000000001E-06
DataValue, 31.2, 1.4548000000000002E-06
DataValue, 31.6, 1.6134E-06
DataValue, 32, 1.8062000000000002E-06
DataValue, 32.4, 2.11E-06
DataValue, 32.8, 0.0055486
DataValue, 33.2, 0.0062612
DataValue, 33.6, 0.0077546
DataValue, 34, 0.0088904
DataValue, 34.4, 0.009819
DataValue, 34.800000000000004, 0.014414000000000002
DataValue, 35.2, 0.017474
DataValue, 35.6, 0.021598000000000003
DataValue, 36, 0.04209
DataValue, 36.4, 0.050018000000000007
DataValue, 36.800000000000004, 0.05002
DataValue, 37.2, 0.049996000000000006
DataValue, 37.6, 0.050012
DataValue, 38, 0.050004000000000007
DataValue, 38.4, 0.049992
DataValue, 38.800000000000004, 0.050008000000000004
DataValue, 39.2, 0.049996000000000006
DataValue, 39.6, 0.05
DataValue, 40, 0.05