
SetupTitle, C-V Sweep
PrimitiveTest, C-V Sweep
TestParameter, Channel.UnitTyp, CMU
TestParameter, Channel.Unit, CMU1:MF/SC
TestParameter, Channel.IName, 
TestParameter, Channel.VName, VBias
TestParameter, Channel.Mode, 
TestParameter, Channel.Func, VAR1
TestParameter, Channel.Index, 
TestParameter, Channel.Time, 
TestParameter, Measurement.Primary.Locus, Double
TestParameter, Measurement.Primary.Scale, LINEAR
TestParameter, Measurement.Primary.Start, -1
TestParameter, Measurement.Primary.Stop, 1
TestParameter, Measurement.Primary.Step, 0.02
TestParameter, Measurement.Aborting.Condition, CONTINUE AT ANY
TestParameter, Measurement.PostOutput.Value, START
TestParameter, Measurement.PostOutput.Retention, OFF
TestParameter, Measurement.Secondary.ACLevel, 0.05
TestParameter, Measurement.Secondary.FName, Freq
TestParameter, Measurement.Secondary.Frequency, 1000, 10000, 100000, 1000000
TestParameter, Measurement.Bias.Source, 0
TestParameter, Measurement.ImpedanceMode.Model, Cs-Rs
TestParameter, Measurement.ImpedanceMode.CName, C
TestParameter, Measurement.ImpedanceMode.LName, L
TestParameter, Measurement.ImpedanceMode.GName, G
TestParameter, Measurement.ImpedanceMode.RName, R
TestParameter, Measurement.ImpedanceMode.QName, Q
TestParameter, Measurement.ImpedanceMode.DName, D
TestParameter, Measurement.ImpedanceMode.YName, Y
TestParameter, Measurement.ImpedanceMode.ZName, Z
TestParameter, Measurement.ImpedanceMode.ThName, Theta
TestParameter, Measurement.ImpedanceMode.BName, B
TestParameter, Measurement.ImpedanceMode.XName, X
TestParameter, Measurement.Monitor.Unit, CMU1:MF/SC
TestParameter, Measurement.Monitor.RangingMode, AUTO
TestParameter, Measurement.Monitor.RangeBoundary, 50
TestParameter, Measurement.Monitor.AcMonitorSymbol, 
TestParameter, Measurement.Monitor.DcMonitorSymbol, 
TestParameter, Measurement.Timing.Hold, 0
TestParameter, Measurement.Timing.Delay, 0
TestParameter, Measurement.Adc.UnitType, Cmu, Smu
TestParameter, Measurement.Adc.HighResolution.Mode, AUTO, AUTO
TestParameter, Measurement.Adc.HighResolution.Coeff, 2, 6
TestParameter, Measurement.WaitTime.Source.Coeff, 1
TestParameter, Measurement.WaitTime.Source.Offset, 0
TestParameter, Measurement.WaitTime.Monitor.Coeff, 1
TestParameter, Measurement.WaitTime.Monitor.Offset, 0
TestParameter, Output.Graph.Enabled, true
TestParameter, Output.Graph.AutoScaling, false
TestParameter, Output.Graph.XAxis.Data, VBias
TestParameter, Output.Graph.XAxis.Scale, Linear
TestParameter, Output.Graph.XAxis.Left, -0.1
TestParameter, Output.Graph.XAxis.Right, 0.1
TestParameter, Output.Graph.XAxis.RunTimeAutoScale, true
TestParameter, Output.Graph.YAxis.Data, C, R
TestParameter, Output.Graph.YAxis.Scale, Linear, Linear
TestParameter, Output.Graph.YAxis.Bottom, 0, 0
TestParameter, Output.Graph.YAxis.Top, 1E-10, 10000
TestParameter, Output.Graph.YAxis.Group, , 
TestParameter, Output.Graph.YAxis.RunTimeAutoScale, true, true
TestParameter, AutoAnalysis.Interpolation, false
TestParameter, AutoAnalysis.Line1.Enabled, false
TestParameter, AutoAnalysis.Line1.Type, 1
TestParameter, AutoAnalysis.Line1.Fix, True
TestParameter, AutoAnalysis.Line1.YAxis, 0
TestParameter, AutoAnalysis.Line1.Point1.Type, 0
TestParameter, AutoAnalysis.Line1.Point1.XY.X, 
TestParameter, AutoAnalysis.Line1.Point1.XY.Y, 
TestParameter, AutoAnalysis.Line1.Point1.Data.Var, 
TestParameter, AutoAnalysis.Line1.Point1.Data.Condition, 
TestParameter, AutoAnalysis.Line1.Point1.Data.Start, false
TestParameter, AutoAnalysis.Line1.Point1.Data.StartVar, 
TestParameter, AutoAnalysis.Line1.Point1.Data.StartCondition, 
TestParameter, AutoAnalysis.Line1.Point2.Type, 0
TestParameter, AutoAnalysis.Line1.Point2.XY.X, 
TestParameter, AutoAnalysis.Line1.Point2.XY.Y, 
TestParameter, AutoAnalysis.Line1.Point2.Data.Var, 
TestParameter, AutoAnalysis.Line1.Point2.Data.Condition, 
TestParameter, AutoAnalysis.Line1.Point2.Data.Start, false
TestParameter, AutoAnalysis.Line1.Point2.Data.StartVar, 
TestParameter, AutoAnalysis.Line1.Point2.Data.StartCondition, 
TestParameter, AutoAnalysis.Line1.GradientExpr, 0
TestParameter, AutoAnalysis.Line2.Enabled, false
TestParameter, AutoAnalysis.Line2.Type, 1
TestParameter, AutoAnalysis.Line2.Fix, True
TestParameter, AutoAnalysis.Line2.YAxis, 0
TestParameter, AutoAnalysis.Line2.Point1.Type, 0
TestParameter, AutoAnalysis.Line2.Point1.XY.X, 
TestParameter, AutoAnalysis.Line2.Point1.XY.Y, 
TestParameter, AutoAnalysis.Line2.Point1.Data.Var, 
TestParameter, AutoAnalysis.Line2.Point1.Data.Condition, 
TestParameter, AutoAnalysis.Line2.Point1.Data.Start, false
TestParameter, AutoAnalysis.Line2.Point1.Data.StartVar, 
TestParameter, AutoAnalysis.Line2.Point1.Data.StartCondition, 
TestParameter, AutoAnalysis.Line2.Point2.Type, 0
TestParameter, AutoAnalysis.Line2.Point2.XY.X, 
TestParameter, AutoAnalysis.Line2.Point2.XY.Y, 
TestParameter, AutoAnalysis.Line2.Point2.Data.Var, 
TestParameter, AutoAnalysis.Line2.Point2.Data.Condition, 
TestParameter, AutoAnalysis.Line2.Point2.Data.Start, false
TestParameter, AutoAnalysis.Line2.Point2.Data.StartVar, 
TestParameter, AutoAnalysis.Line2.Point2.Data.StartCondition, 
TestParameter, AutoAnalysis.Line2.GradientExpr, 0
TestParameter, AutoAnalysis.Marker.Enabled, false
TestParameter, AutoAnalysis.Marker.Data.Var, 
TestParameter, AutoAnalysis.Marker.Data.Condition, 
TestParameter, AutoAnalysis.Marker.Data.Start, false
TestParameter, AutoAnalysis.Marker.Data.StartVar, 
TestParameter, AutoAnalysis.Marker.Data.StartCondition, 
MetaData, TestRecord.EntryPoint, true
MetaData, TestRecord.RecordTime, 11/15/2019 06:06:19
MetaData, TestRecord.TestTarget, Al_2.0_10_n
MetaData, TestRecord.IterationIndex, 5
MetaData, TestRecord.Preservation, true
MetaData, TestRecord.Flag, 
MetaData, TestRecord.Remarks, 
MetaData, TestRecord.LinkKey, 97a35259-9cdb-4346-9f29-d6852f8bd156
Dimension1, 202, 202, 202
Dimension2, 4, 4, 4
DataName, VBias, C, R
DataValue, -1, 4.0907E-07, 27088.850000000002
DataValue, -0.98, 3.8224599999999997E-07, 27525.34
DataValue, -0.96, 4.07689E-07, 27968.24
DataValue, -0.94000000000000006, 3.8955299999999997E-07, 28335.510000000002
DataValue, -0.92, 4.70081E-07, 28801.25
DataValue, -0.9, 3.48606E-07, 29408.15
DataValue, -0.88, 3.2031899999999997E-07, 30002.22
DataValue, -0.86, 3.5683E-07, 30337.72
DataValue, -0.84, 4.14637E-07, 31181.53
DataValue, -0.82000000000000006, 3.3686999999999997E-07, 31748.530000000002
DataValue, -0.8, 3.01841E-07, 32173.670000000002
DataValue, -0.78, 2.99281E-07, 32896.26
DataValue, -0.76, 2.70954E-07, 33222.78
DataValue, -0.74, 2.74756E-07, 33911.29
DataValue, -0.72, 2.6459E-07, 34254.33
DataValue, -0.70000000000000007, 2.50973E-07, 34927.51
DataValue, -0.68, 2.6454999999999997E-07, 35724.200000000004
DataValue, -0.66, 2.36793E-07, 36281.41
DataValue, -0.64, 2.22534E-07, 36896.97
DataValue, -0.62, 2.1523899999999999E-07, 37726.69
DataValue, -0.6, 2.24767E-07, 38544.63
DataValue, -0.58, 1.95267E-07, 39210.6
DataValue, -0.56, 2.08171E-07, 39894.07
DataValue, -0.54, 1.7766E-07, 40688.67
DataValue, -0.52, 1.6892499999999999E-07, 41584.950000000004
DataValue, -0.5, 1.72267E-07, 42992.97
DataValue, -0.48, 1.6530699999999999E-07, 43647.19
DataValue, -0.46, 1.55998E-07, 44427.270000000004
DataValue, -0.44, 1.4629E-07, 45370.36
DataValue, -0.42, 1.4543999999999998E-07, 46572.33
DataValue, -0.4, 1.36931E-07, 47055.61
DataValue, -0.38, 1.25205E-07, 48137.3
DataValue, -0.36, 1.17917E-07, 49038.83
DataValue, -0.34, 1.1102E-07, 50174.630000000005
DataValue, -0.32, 1.0283399999999999E-07, 51507.03
DataValue, -0.3, 9.2998E-08, 52997.67
DataValue, -0.28, 8.6830300000000007E-08, 54519.08
DataValue, -0.26, 7.75424E-08, 56824.61
DataValue, -0.24, 6.78118E-08, 58927.86
DataValue, -0.22, 5.73231E-08, 62455.5
DataValue, -0.2, 4.71366E-08, 66897.34
DataValue, -0.18, 3.66846E-08, 73364.52
DataValue, -0.16, 2.69451E-08, 82188.22
DataValue, -0.14, 1.84614E-08, 95820.900000000009
DataValue, -0.12, 1.15552E-08, 115201.90000000001
DataValue, -0.1, 6.74999E-09, 144102
DataValue, -0.08, 3.66193E-09, 186066.2
DataValue, -0.06, 1.84079E-09, 247381.7
DataValue, -0.04, 9.4178E-10, 315247.60000000003
DataValue, -0.02, 5.23021E-10, 360967.80000000005
DataValue, 0, 3.4778300000000004E-10, 343682.5
DataValue, 0.02, 2.80108E-10, 280393.8
DataValue, 0.04, 2.55009E-10, 218718.5
DataValue, 0.06, 2.45029E-10, 178221.2
DataValue, 0.08, 2.41749E-10, 159133.6
DataValue, 0.1, 2.4061200000000003E-10, 151244.2
DataValue, 0.12, 2.40268E-10, 150058.6
DataValue, 0.14, 2.4122E-10, 155553.6
DataValue, 0.16, 2.41701E-10, 160099.7
DataValue, 0.18, 2.43652E-10, 171206.80000000002
DataValue, 0.2, 2.44793E-10, 178241.5
DataValue, 0.22, 2.46883E-10, 188923.1
DataValue, 0.24, 2.5024E-10, 200883.5
DataValue, 0.26, 2.53261E-10, 214269.80000000002
DataValue, 0.28, 2.5545100000000004E-10, 222735.2
DataValue, 0.3, 2.5898200000000004E-10, 234051.6
DataValue, 0.32, 2.62251E-10, 242114
DataValue, 0.34, 2.6751500000000003E-10, 255761.2
DataValue, 0.36, 2.7138E-10, 265983.60000000003
DataValue, 0.38, 2.7654200000000003E-10, 274733.8
DataValue, 0.4, 2.8310500000000003E-10, 287011.60000000003
DataValue, 0.42, 2.8949300000000003E-10, 295985.60000000003
DataValue, 0.44, 2.96284E-10, 306113.4
DataValue, 0.46, 3.02654E-10, 312841.8
DataValue, 0.48, 3.10917E-10, 321236.7
DataValue, 0.5, 3.2159E-10, 330117.4
DataValue, 0.52, 3.30702E-10, 335886.7
DataValue, 0.54, 3.4209500000000005E-10, 341795.5
DataValue, 0.56, 3.5713500000000003E-10, 348993.9
DataValue, 0.58, 3.7000900000000004E-10, 353814.60000000003
DataValue, 0.6, 3.8256200000000004E-10, 357666.7
DataValue, 0.62, 3.9481500000000005E-10, 359493.7
DataValue, 0.64, 4.1208000000000004E-10, 361537.9
DataValue, 0.66, 4.3228900000000006E-10, 363654.80000000005
DataValue, 0.68, 4.5342400000000006E-10, 364380.5
DataValue, 0.70000000000000007, 4.69194E-10, 364588.5
DataValue, 0.72, 4.90854E-10, 363574.80000000005
DataValue, 0.74, 5.1594100000000009E-10, 362848
DataValue, 0.76, 5.40532E-10, 361084.2
DataValue, 0.78, 5.6903300000000008E-10, 358252.4
DataValue, 0.8, 5.9265E-10, 355526.60000000003
DataValue, 0.82000000000000006, 6.22516E-10, 353945
DataValue, 0.84, 6.5802100000000008E-10, 348957.7
DataValue, 0.86, 6.94391E-10, 345343.4
DataValue, 0.88, 7.31223E-10, 341141
DataValue, 0.9, 7.69749E-10, 336385.10000000003
DataValue, 0.92, 8.1261400000000009E-10, 330356.9
DataValue, 0.94000000000000006, 8.6369500000000009E-10, 324501.30000000005
DataValue, 0.96, 9.159710000000001E-10, 319674.9
DataValue, 0.98, 9.69336E-10, 314038.3
DataValue, 1, 1.02888E-09, 307391.7
DataValue, 1, 1.03606E-09, 306017
DataValue, 0.98, 9.85767E-10, 310455.3
DataValue, 0.96, 9.3087700000000007E-10, 317279.9
DataValue, 0.94000000000000006, 8.70979E-10, 323422.9
DataValue, 0.92, 8.32411E-10, 328568
DataValue, 0.9, 7.8647200000000009E-10, 334792.60000000003
DataValue, 0.88, 7.46124E-10, 337839.4
DataValue, 0.86, 7.08795E-10, 343186.2
DataValue, 0.84, 6.8312800000000008E-10, 346662.60000000003
DataValue, 0.82000000000000006, 6.4577200000000005E-10, 350920.7
DataValue, 0.8, 6.11263E-10, 352886.7
DataValue, 0.78, 5.8449800000000008E-10, 357314.30000000005
DataValue, 0.76, 5.5262700000000006E-10, 359498.9
DataValue, 0.74, 5.2828000000000006E-10, 362348
DataValue, 0.72, 4.9730500000000007E-10, 363980.30000000005
DataValue, 0.70000000000000007, 4.8276700000000006E-10, 363308
DataValue, 0.68, 4.64038E-10, 363937.10000000003
DataValue, 0.66, 4.4456400000000005E-10, 362962.7
DataValue, 0.64, 4.273E-10, 362783.60000000003
DataValue, 0.62, 4.0575300000000005E-10, 362498.9
DataValue, 0.6, 3.8943300000000004E-10, 361185.30000000005
DataValue, 0.58, 3.7505800000000003E-10, 355002.60000000003
DataValue, 0.56, 3.64208E-10, 352251.5
DataValue, 0.54, 3.4908000000000005E-10, 345890.9
DataValue, 0.52, 3.37781E-10, 340080.10000000003
DataValue, 0.5, 3.2585900000000004E-10, 334629.10000000003
DataValue, 0.48, 3.17738E-10, 327523
DataValue, 0.46, 3.0796700000000005E-10, 317892.5
DataValue, 0.44, 3.00768E-10, 310702.3
DataValue, 0.42, 2.9185800000000005E-10, 300768.3
DataValue, 0.4, 2.85081E-10, 290397.5
DataValue, 0.38, 2.77625E-10, 278946
DataValue, 0.36, 2.7286800000000004E-10, 268232.4
DataValue, 0.34, 2.68422E-10, 259615.5
DataValue, 0.32, 2.64124E-10, 248295
DataValue, 0.3, 2.59545E-10, 236318.1
DataValue, 0.28, 2.56375E-10, 224741.90000000002
DataValue, 0.26, 2.53151E-10, 214490.30000000002
DataValue, 0.24, 2.50229E-10, 202999.7
DataValue, 0.22, 2.4745900000000003E-10, 191281.7
DataValue, 0.2, 2.4531400000000004E-10, 180904.7
DataValue, 0.18, 2.4372300000000004E-10, 172370.6
DataValue, 0.16, 2.42163E-10, 163705
DataValue, 0.14, 2.41106E-10, 156521.5
DataValue, 0.12, 2.4042700000000004E-10, 151402.1
DataValue, 0.1, 2.4029300000000003E-10, 151012.6
DataValue, 0.08, 2.4184900000000004E-10, 159856.30000000002
DataValue, 0.06, 2.4565200000000004E-10, 180527
DataValue, 0.04, 2.55659E-10, 221192.1
DataValue, 0.02, 2.81652E-10, 283449.7
DataValue, 0, 3.4913800000000003E-10, 345296.4
DataValue, -0.02, 5.24319E-10, 361371.80000000005
DataValue, -0.04, 9.5004700000000012E-10, 314983.9
DataValue, -0.06, 1.8655E-09, 246809.40000000002
DataValue, -0.08, 3.66804E-09, 187145.80000000002
DataValue, -0.1, 6.80308E-09, 144255.6
DataValue, -0.12, 1.1718700000000001E-08, 115703.70000000001
DataValue, -0.14, 1.85046E-08, 96634.930000000008
DataValue, -0.16, 2.7025800000000002E-08, 83773.27
DataValue, -0.18, 3.69255E-08, 74329.49
DataValue, -0.2, 4.74067E-08, 68361.03
DataValue, -0.22, 5.7604600000000004E-08, 63770.61
DataValue, -0.24, 6.79526E-08, 60962.340000000004
DataValue, -0.26, 7.53795E-08, 58529.37
DataValue, -0.28, 8.56787E-08, 56366.42
DataValue, -0.3, 9.4656700000000009E-08, 54535.89
DataValue, -0.32, 9.81141E-08, 53388.47
DataValue, -0.34, 1.09799E-07, 51744.66
DataValue, -0.36, 1.16591E-07, 50388.21
DataValue, -0.38, 1.2212099999999999E-07, 49493.43
DataValue, -0.4, 1.2935799999999999E-07, 48553.05
DataValue, -0.42, 1.38475E-07, 47543.1
DataValue, -0.44, 1.56603E-07, 46225.44
DataValue, -0.46, 1.51667E-07, 45544.53
DataValue, -0.48, 1.51025E-07, 45012.53
DataValue, -0.5, 1.6863E-07, 43864.89
DataValue, -0.52, 1.77979E-07, 43192.29
DataValue, -0.54, 1.68157E-07, 42453.39
DataValue, -0.56, 1.98472E-07, 41724.71
DataValue, -0.58, 1.97518E-07, 40567.9
DataValue, -0.6, 2.15987E-07, 39775.22
DataValue, -0.62, 2.15503E-07, 39133.14
DataValue, -0.64, 2.07282E-07, 38475.33
DataValue, -0.66, 2.504E-07, 37800.46
DataValue, -0.68, 2.69284E-07, 36679
DataValue, -0.70000000000000007, 2.67404E-07, 35890.64
DataValue, -0.72, 2.88779E-07, 35405.200000000004
DataValue, -0.74, 2.71534E-07, 34797.58
DataValue, -0.76, 2.9279E-07, 34232.48
DataValue, -0.78, 3.39531E-07, 33513.22
DataValue, -0.8, 3.10534E-07, 32832.72
DataValue, -0.82000000000000006, 3.33091E-07, 32213.2
DataValue, -0.84, 3.26032E-07, 31405.52
DataValue, -0.86, 3.83293E-07, 30843.45
DataValue, -0.88, 4.04295E-07, 30515.5
DataValue, -0.9, 3.67375E-07, 29774.260000000002
DataValue, -0.92, 3.9366499999999997E-07, 29431.170000000002
DataValue, -0.94000000000000006, 3.3796299999999997E-07, 28953.75
DataValue, -0.96, 4.64915E-07, 28424.920000000002
DataValue, -0.98, 4.73183E-07, 27812.36
DataValue, -1, 4.94288E-07, 27356.82
DataValue, -1, 4.97942E-09, 27056.91
DataValue, -0.98, 4.82143E-09, 27542.97
DataValue, -0.96, 4.64719E-09, 27875.24
DataValue, -0.94000000000000006, 4.49793E-09, 28361.99
DataValue, -0.92, 4.36922E-09, 28779.72
DataValue, -0.9, 4.18717E-09, 29392.12
DataValue, -0.88, 4.04516E-09, 29999
DataValue, -0.86, 3.88488E-09, 30516.100000000002
DataValue, -0.84, 3.76895E-09, 30836.850000000002
DataValue, -0.82000000000000006, 3.66808E-09, 31340.190000000002
DataValue, -0.8, 3.45157E-09, 31879.81
DataValue, -0.78, 3.35956E-09, 32454.760000000002
DataValue, -0.76, 3.25692E-09, 33119.6
DataValue, -0.74, 3.05815E-09, 33817.08
DataValue, -0.72, 2.94503E-09, 34472.41
DataValue, -0.70000000000000007, 2.82486E-09, 35002.21
DataValue, -0.68, 2.72215E-09, 35704.42
DataValue, -0.66, 2.58296E-09, 36494.5
DataValue, -0.64, 2.49871E-09, 36988.8
DataValue, -0.62, 2.42183E-09, 37393.43
DataValue, -0.6, 2.32945E-09, 38134.840000000004
DataValue, -0.58, 2.22826E-09, 38968.450000000004
DataValue, -0.56, 2.09514E-09, 39999.28
DataValue, -0.54, 2.02648E-09, 40407.88
DataValue, -0.52, 1.92246E-09, 41290.18
DataValue, -0.5, 1.85326E-09, 41902.200000000004
DataValue, -0.48, 1.78213E-09, 42487.18
DataValue, -0.46, 1.69676E-09, 43170.82
DataValue, -0.44, 1.62324E-09, 44053.58
DataValue, -0.42, 1.54143E-09, 44732.5
DataValue, -0.4, 1.47082E-09, 45460.33
DataValue, -0.38, 1.39401E-09, 46265.6
DataValue, -0.36, 1.33504E-09, 46714.72
DataValue, -0.34, 1.25953E-09, 47353.63
DataValue, -0.32, 1.17946E-09, 48365.28
DataValue, -0.3, 1.1049E-09, 49285.07
DataValue, -0.28, 1.03083E-09, 49874.29
DataValue, -0.26, 9.4746000000000016E-10, 51173.86
DataValue, -0.24, 8.58397E-10, 52334.4
DataValue, -0.22, 7.66552E-10, 53555.020000000004
DataValue, -0.2, 6.77011E-10, 54816.56
DataValue, -0.18, 5.82562E-10, 56216.39
DataValue, -0.16, 4.8960200000000006E-10, 57263.630000000005
DataValue, -0.14, 4.08311E-10, 57718.64
DataValue, -0.12, 3.40591E-10, 56657.630000000005
DataValue, -0.1, 2.8970400000000003E-10, 53796.76
DataValue, -0.08, 2.56057E-10, 49156.22
DataValue, -0.06, 2.35064E-10, 44009.55
DataValue, -0.04, 2.2394000000000003E-10, 38834.68
DataValue, -0.02, 2.1844600000000002E-10, 34648.79
DataValue, 0, 2.1577900000000002E-10, 31730.13
DataValue, 0.02, 2.1457100000000002E-10, 29981.62
DataValue, 0.04, 2.1403400000000002E-10, 28972.37
DataValue, 0.06, 2.1384200000000003E-10, 28243.29
DataValue, 0.08, 2.1364900000000002E-10, 28094.81
DataValue, 0.1, 2.1374000000000003E-10, 27909.97
DataValue, 0.12, 2.13632E-10, 27950.4
DataValue, 0.14, 2.13822E-10, 27869.690000000002
DataValue, 0.16, 2.1396000000000003E-10, 27800.79
DataValue, 0.18, 2.1362E-10, 28281.25
DataValue, 0.2, 2.1405600000000003E-10, 28122.98
DataValue, 0.22, 2.1403100000000002E-10, 28324.31
DataValue, 0.24, 2.13994E-10, 28590.74
DataValue, 0.26, 2.1445100000000003E-10, 28497.13
DataValue, 0.28, 2.14271E-10, 28828.98
DataValue, 0.3, 2.1430600000000003E-10, 29030.39
DataValue, 0.32, 2.14768E-10, 28975.21
DataValue, 0.34, 2.1470400000000003E-10, 29216.82
DataValue, 0.36, 2.15063E-10, 29122.08
DataValue, 0.38, 2.15027E-10, 29538.36
DataValue, 0.4, 2.1574800000000001E-10, 29317.43
DataValue, 0.42, 2.1578300000000003E-10, 29610.39
DataValue, 0.44, 2.15988E-10, 29769.920000000002
DataValue, 0.46, 2.1601200000000003E-10, 30034.64
DataValue, 0.48, 2.1591700000000002E-10, 30560.940000000002
DataValue, 0.5, 2.16281E-10, 30643.37
DataValue, 0.52, 2.1628000000000003E-10, 30982.24
DataValue, 0.54, 2.1638100000000002E-10, 31323
DataValue, 0.56, 2.16959E-10, 31321.14
DataValue, 0.58, 2.1714500000000003E-10, 31596.780000000002
DataValue, 0.6, 2.1747600000000003E-10, 31944.030000000002
DataValue, 0.62, 2.1751500000000002E-10, 32411.510000000002
DataValue, 0.64, 2.17944E-10, 32463.690000000002
DataValue, 0.66, 2.1829200000000002E-10, 32670.86
DataValue, 0.68, 2.1907200000000002E-10, 32567.170000000002
DataValue, 0.70000000000000007, 2.1932300000000002E-10, 32739.780000000002
DataValue, 0.72, 2.19583E-10, 33341.63
DataValue, 0.74, 2.20108E-10, 33476.01
DataValue, 0.76, 2.2030500000000002E-10, 33838.36
DataValue, 0.78, 2.2096100000000001E-10, 34076.97
DataValue, 0.8, 2.2135000000000002E-10, 34297.14
DataValue, 0.82000000000000006, 2.21891E-10, 34584.67
DataValue, 0.84, 2.2247700000000002E-10, 34841.270000000004
DataValue, 0.86, 2.23386E-10, 34887.82
DataValue, 0.88, 2.2429E-10, 35110.28
DataValue, 0.9, 2.24772E-10, 35533.63
DataValue, 0.92, 2.25101E-10, 35696.76
