
SetupTitle, C-V Sweep
PrimitiveTest, C-V Sweep
TestParameter, Channel.UnitTyp, CMU
TestParameter, Channel.Unit, CMU1:MF/SC
TestParameter, Channel.IName, 
TestParameter, Channel.VName, VBias
TestParameter, Channel.Mode, 
TestParameter, Channel.Func, VAR1
TestParameter, Channel.Index, 
TestParameter, Channel.Time, 
TestParameter, Measurement.Primary.Locus, Double
TestParameter, Measurement.Primary.Scale, LINEAR
TestParameter, Measurement.Primary.Start, -1
TestParameter, Measurement.Primary.Stop, 1
TestParameter, Measurement.Primary.Step, 0.02
TestParameter, Measurement.Aborting.Condition, CONTINUE AT ANY
TestParameter, Measurement.PostOutput.Value, START
TestParameter, Measurement.PostOutput.Retention, OFF
TestParameter, Measurement.Secondary.ACLevel, 0.05
TestParameter, Measurement.Secondary.FName, Freq
TestParameter, Measurement.Secondary.Frequency, 1000, 10000, 100000, 1000000
TestParameter, Measurement.Bias.Source, 0
TestParameter, Measurement.ImpedanceMode.Model, Cs-Rs
TestParameter, Measurement.ImpedanceMode.CName, C
TestParameter, Measurement.ImpedanceMode.LName, L
TestParameter, Measurement.ImpedanceMode.GName, G
TestParameter, Measurement.ImpedanceMode.RName, R
TestParameter, Measurement.ImpedanceMode.QName, Q
TestParameter, Measurement.ImpedanceMode.DName, D
TestParameter, Measurement.ImpedanceMode.YName, Y
TestParameter, Measurement.ImpedanceMode.ZName, Z
TestParameter, Measurement.ImpedanceMode.ThName, Theta
TestParameter, Measurement.ImpedanceMode.BName, B
TestParameter, Measurement.ImpedanceMode.XName, X
TestParameter, Measurement.Monitor.Unit, CMU1:MF/SC
TestParameter, Measurement.Monitor.RangingMode, AUTO
TestParameter, Measurement.Monitor.RangeBoundary, 50
TestParameter, Measurement.Monitor.AcMonitorSymbol, 
TestParameter, Measurement.Monitor.DcMonitorSymbol, 
TestParameter, Measurement.Timing.Hold, 0
TestParameter, Measurement.Timing.Delay, 0
TestParameter, Measurement.Adc.UnitType, Cmu, Smu
TestParameter, Measurement.Adc.HighResolution.Mode, AUTO, AUTO
TestParameter, Measurement.Adc.HighResolution.Coeff, 2, 6
TestParameter, Measurement.WaitTime.Source.Coeff, 1
TestParameter, Measurement.WaitTime.Source.Offset, 0
TestParameter, Measurement.WaitTime.Monitor.Coeff, 1
TestParameter, Measurement.WaitTime.Monitor.Offset, 0
TestParameter, Output.Graph.Enabled, true
TestParameter, Output.Graph.AutoScaling, false
TestParameter, Output.Graph.XAxis.Data, VBias
TestParameter, Output.Graph.XAxis.Scale, Linear
TestParameter, Output.Graph.XAxis.Left, -0.1
TestParameter, Output.Graph.XAxis.Right, 0.1
TestParameter, Output.Graph.XAxis.RunTimeAutoScale, true
TestParameter, Output.Graph.YAxis.Data, C, R
TestParameter, Output.Graph.YAxis.Scale, Linear, Linear
TestParameter, Output.Graph.YAxis.Bottom, 0, 0
TestParameter, Output.Graph.YAxis.Top, 1E-10, 10000
TestParameter, Output.Graph.YAxis.Group, , 
TestParameter, Output.Graph.YAxis.RunTimeAutoScale, true, true
TestParameter, AutoAnalysis.Interpolation, false
TestParameter, AutoAnalysis.Line1.Enabled, false
TestParameter, AutoAnalysis.Line1.Type, 1
TestParameter, AutoAnalysis.Line1.Fix, True
TestParameter, AutoAnalysis.Line1.YAxis, 0
TestParameter, AutoAnalysis.Line1.Point1.Type, 0
TestParameter, AutoAnalysis.Line1.Point1.XY.X, 
TestParameter, AutoAnalysis.Line1.Point1.XY.Y, 
TestParameter, AutoAnalysis.Line1.Point1.Data.Var, 
TestParameter, AutoAnalysis.Line1.Point1.Data.Condition, 
TestParameter, AutoAnalysis.Line1.Point1.Data.Start, false
TestParameter, AutoAnalysis.Line1.Point1.Data.StartVar, 
TestParameter, AutoAnalysis.Line1.Point1.Data.StartCondition, 
TestParameter, AutoAnalysis.Line1.Point2.Type, 0
TestParameter, AutoAnalysis.Line1.Point2.XY.X, 
TestParameter, AutoAnalysis.Line1.Point2.XY.Y, 
TestParameter, AutoAnalysis.Line1.Point2.Data.Var, 
TestParameter, AutoAnalysis.Line1.Point2.Data.Condition, 
TestParameter, AutoAnalysis.Line1.Point2.Data.Start, false
TestParameter, AutoAnalysis.Line1.Point2.Data.StartVar, 
TestParameter, AutoAnalysis.Line1.Point2.Data.StartCondition, 
TestParameter, AutoAnalysis.Line1.GradientExpr, 0
TestParameter, AutoAnalysis.Line2.Enabled, false
TestParameter, AutoAnalysis.Line2.Type, 1
TestParameter, AutoAnalysis.Line2.Fix, True
TestParameter, AutoAnalysis.Line2.YAxis, 0
TestParameter, AutoAnalysis.Line2.Point1.Type, 0
TestParameter, AutoAnalysis.Line2.Point1.XY.X, 
TestParameter, AutoAnalysis.Line2.Point1.XY.Y, 
TestParameter, AutoAnalysis.Line2.Point1.Data.Var, 
TestParameter, AutoAnalysis.Line2.Point1.Data.Condition, 
TestParameter, AutoAnalysis.Line2.Point1.Data.Start, false
TestParameter, AutoAnalysis.Line2.Point1.Data.StartVar, 
TestParameter, AutoAnalysis.Line2.Point1.Data.StartCondition, 
TestParameter, AutoAnalysis.Line2.Point2.Type, 0
TestParameter, AutoAnalysis.Line2.Point2.XY.X, 
TestParameter, AutoAnalysis.Line2.Point2.XY.Y, 
TestParameter, AutoAnalysis.Line2.Point2.Data.Var, 
TestParameter, AutoAnalysis.Line2.Point2.Data.Condition, 
TestParameter, AutoAnalysis.Line2.Point2.Data.Start, false
TestParameter, AutoAnalysis.Line2.Point2.Data.StartVar, 
TestParameter, AutoAnalysis.Line2.Point2.Data.StartCondition, 
TestParameter, AutoAnalysis.Line2.GradientExpr, 0
TestParameter, AutoAnalysis.Marker.Enabled, false
TestParameter, AutoAnalysis.Marker.Data.Var, 
TestParameter, AutoAnalysis.Marker.Data.Condition, 
TestParameter, AutoAnalysis.Marker.Data.Start, false
TestParameter, AutoAnalysis.Marker.Data.StartVar, 
TestParameter, AutoAnalysis.Marker.Data.StartCondition, 
MetaData, TestRecord.EntryPoint, true
MetaData, TestRecord.RecordTime, 11/25/2019 16:18:32
MetaData, TestRecord.TestTarget, Al2O3_0.5_5
MetaData, TestRecord.IterationIndex, 1
MetaData, TestRecord.Preservation, true
MetaData, TestRecord.Flag, 
MetaData, TestRecord.Remarks, 
MetaData, TestRecord.LinkKey, 4d23611b-55e0-49af-91c6-e885de9d1fc3
Dimension1, 202, 202, 202
Dimension2, 4, 4, 4
DataName, VBias, C, R
DataValue, -1, 2.4045600000000003E-10, 3659.645
DataValue, -0.98, 2.40266E-10, 3642.666
DataValue, -0.96, 2.40115E-10, 3577.9610000000002
DataValue, -0.94000000000000006, 2.3991400000000004E-10, 3608.8940000000002
DataValue, -0.92, 2.3976400000000004E-10, 3618.592
DataValue, -0.9, 2.39587E-10, 3525.751
DataValue, -0.88, 2.3940700000000003E-10, 3506.292
DataValue, -0.86, 2.39249E-10, 3524.579
DataValue, -0.84, 2.3905300000000004E-10, 3538.7490000000003
DataValue, -0.82000000000000006, 2.38899E-10, 3362.69
DataValue, -0.8, 2.38723E-10, 3524.185
DataValue, -0.78, 2.3856300000000003E-10, 3382.8160000000003
DataValue, -0.76, 2.3838400000000004E-10, 3447.967
DataValue, -0.74, 2.3819700000000004E-10, 3373.105
DataValue, -0.72, 2.3800300000000003E-10, 3370.19
DataValue, -0.70000000000000007, 2.3786500000000004E-10, 3411.032
DataValue, -0.68, 2.37705E-10, 3366.905
DataValue, -0.66, 2.3752800000000004E-10, 3356.879
DataValue, -0.64, 2.37349E-10, 3295.112
DataValue, -0.62, 2.37175E-10, 3384.698
DataValue, -0.6, 2.3703300000000003E-10, 3282.357
DataValue, -0.58, 2.36843E-10, 3168.9230000000002
DataValue, -0.56, 2.3670100000000003E-10, 3250.98
DataValue, -0.54, 2.3653200000000003E-10, 3270.023
DataValue, -0.52, 2.3634000000000003E-10, 3266.09
DataValue, -0.5, 2.36143E-10, 3234.3650000000002
DataValue, -0.48, 2.35995E-10, 3158.8940000000002
DataValue, -0.46, 2.35812E-10, 3270.553
DataValue, -0.44, 2.35645E-10, 3223.252
DataValue, -0.42, 2.35469E-10, 3237.357
DataValue, -0.4, 2.35312E-10, 3173.15
DataValue, -0.38, 2.3516500000000004E-10, 3199.885
DataValue, -0.36, 2.3498500000000004E-10, 3303.7090000000003
DataValue, -0.34, 2.34794E-10, 3206.65
DataValue, -0.32, 2.3460500000000004E-10, 3211.366
DataValue, -0.3, 2.3449500000000003E-10, 3138.3250000000003
DataValue, -0.28, 2.343E-10, 3138.526
DataValue, -0.26, 2.3410500000000004E-10, 3233.606
DataValue, -0.24, 2.3394200000000004E-10, 3142.476
DataValue, -0.22, 2.33777E-10, 3148.583
DataValue, -0.2, 2.3359200000000003E-10, 3115.025
DataValue, -0.18, 2.3343600000000004E-10, 3083.184
DataValue, -0.16, 2.3326600000000003E-10, 3093.069
DataValue, -0.14, 2.3307E-10, 3115.25
DataValue, -0.12, 2.32915E-10, 3100.01
DataValue, -0.1, 2.3275500000000002E-10, 3192.26
DataValue, -0.08, 2.3260000000000003E-10, 3049.638
DataValue, -0.06, 2.32375E-10, 3078.415
DataValue, -0.04, 2.3224300000000002E-10, 3126.335
DataValue, -0.02, 2.3206600000000002E-10, 3086.6440000000002
DataValue, 0, 2.3188400000000001E-10, 3132.04
DataValue, 0.02, 2.3171700000000003E-10, 3071.974
DataValue, 0.04, 2.3155600000000002E-10, 3089.493
DataValue, 0.06, 2.3137600000000002E-10, 3062.1710000000003
DataValue, 0.08, 2.3122800000000002E-10, 3100.073
DataValue, 0.1, 2.3103000000000003E-10, 3063.27
DataValue, 0.12, 2.3083900000000002E-10, 3125.7780000000002
DataValue, 0.14, 2.3070000000000002E-10, 3077.355
DataValue, 0.16, 2.3052400000000003E-10, 3107.261
DataValue, 0.18, 2.3038400000000002E-10, 3078.4410000000003
DataValue, 0.2, 2.3021900000000003E-10, 3118.4610000000002
DataValue, 0.22, 2.3002200000000002E-10, 3131.639
DataValue, 0.24, 2.2983900000000002E-10, 3151.696
DataValue, 0.26, 2.2965200000000002E-10, 3094.629
DataValue, 0.28, 2.2950200000000003E-10, 3168.0460000000003
DataValue, 0.3, 2.2933300000000002E-10, 3122.1040000000003
DataValue, 0.32, 2.2919100000000002E-10, 3102.333
DataValue, 0.34, 2.28982E-10, 3129.804
DataValue, 0.36, 2.28816E-10, 3071.69
DataValue, 0.38, 2.2864800000000002E-10, 3099.326
DataValue, 0.4, 2.28518E-10, 3091.203
DataValue, 0.42, 2.2830600000000003E-10, 3073.678
DataValue, 0.44, 2.2815400000000002E-10, 3011.372
DataValue, 0.46, 2.2798200000000002E-10, 3153.13
DataValue, 0.48, 2.2779500000000001E-10, 3151.059
DataValue, 0.5, 2.2763600000000002E-10, 3120.896
DataValue, 0.52, 2.27442E-10, 3225.984
DataValue, 0.54, 2.27261E-10, 3183.368
DataValue, 0.56, 2.2712700000000002E-10, 3179.7290000000003
DataValue, 0.58, 2.2696100000000002E-10, 3120.696
DataValue, 0.6, 2.2679600000000003E-10, 3234.053
DataValue, 0.62, 2.2659600000000002E-10, 3222.648
DataValue, 0.64, 2.26466E-10, 3126.351
DataValue, 0.66, 2.2628700000000003E-10, 3246.399
DataValue, 0.68, 2.26125E-10, 3169.091
DataValue, 0.70000000000000007, 2.25923E-10, 3246.1620000000003
DataValue, 0.72, 2.25742E-10, 3217.814
DataValue, 0.74, 2.2559100000000003E-10, 3259.317
DataValue, 0.76, 2.25399E-10, 3315.811
DataValue, 0.78, 2.2525600000000002E-10, 3303.864
DataValue, 0.8, 2.2510000000000003E-10, 3307.4610000000002
DataValue, 0.82000000000000006, 2.24899E-10, 3210.898
DataValue, 0.84, 2.24784E-10, 3288.405
DataValue, 0.86, 2.2463300000000003E-10, 3233.102
DataValue, 0.88, 2.2446000000000002E-10, 3232.509
DataValue, 0.9, 2.2427600000000002E-10, 3319.964
DataValue, 0.92, 2.2411000000000002E-10, 3315.19
DataValue, 0.94000000000000006, 2.23965E-10, 3251.58
DataValue, 0.96, 2.2379200000000003E-10, 3319.507
DataValue, 0.98, 2.23636E-10, 3357.6730000000002
DataValue, 1, 2.2348700000000002E-10, 3263.213
DataValue, 1, 2.2344200000000002E-10, 3256.759
DataValue, 0.98, 2.2365000000000002E-10, 3262.281
DataValue, 0.96, 2.23793E-10, 3288.123
DataValue, 0.94000000000000006, 2.23971E-10, 3230.516
DataValue, 0.92, 2.2413E-10, 3312.478
DataValue, 0.9, 2.2428800000000002E-10, 3282.5
DataValue, 0.88, 2.2445200000000003E-10, 3251.4210000000003
DataValue, 0.86, 2.2461100000000002E-10, 3239.106
DataValue, 0.84, 2.2477900000000002E-10, 3211.164
DataValue, 0.82000000000000006, 2.2492200000000003E-10, 3255.496
DataValue, 0.8, 2.2513800000000002E-10, 3221.237
DataValue, 0.78, 2.2524400000000002E-10, 3291.913
DataValue, 0.76, 2.2547600000000002E-10, 3228.579
DataValue, 0.74, 2.25625E-10, 3171.2110000000002
DataValue, 0.72, 2.2579800000000002E-10, 3197.053
DataValue, 0.70000000000000007, 2.2593900000000002E-10, 3090.1130000000003
DataValue, 0.68, 2.2610800000000002E-10, 3179.692
DataValue, 0.66, 2.2629000000000003E-10, 3208.081
DataValue, 0.64, 2.2644100000000003E-10, 3137.849
DataValue, 0.62, 2.2663900000000002E-10, 3225.536
DataValue, 0.6, 2.2680800000000003E-10, 3179.8940000000002
DataValue, 0.58, 2.26966E-10, 3144.969
DataValue, 0.56, 2.2711400000000001E-10, 3130.13
DataValue, 0.54, 2.2732000000000002E-10, 3113.651
DataValue, 0.52, 2.27463E-10, 3153.58
DataValue, 0.5, 2.2763100000000003E-10, 3151.55
DataValue, 0.48, 2.2779700000000003E-10, 3172.549
DataValue, 0.46, 2.2800100000000002E-10, 3085.812
DataValue, 0.44, 2.2818100000000002E-10, 3137.7670000000003
DataValue, 0.42, 2.2832000000000002E-10, 3120.722
DataValue, 0.4, 2.2851700000000003E-10, 3153.579
DataValue, 0.38, 2.28677E-10, 3103.427
DataValue, 0.36, 2.2885600000000002E-10, 3072.5370000000003
DataValue, 0.34, 2.2906200000000003E-10, 3134.599
DataValue, 0.32, 2.2921800000000002E-10, 3061.256
DataValue, 0.3, 2.2938100000000002E-10, 3154.292
DataValue, 0.28, 2.2953200000000003E-10, 3118.512
DataValue, 0.26, 2.2973000000000002E-10, 3143.0480000000002
DataValue, 0.24, 2.2987200000000002E-10, 3092.6800000000003
DataValue, 0.22, 2.3007400000000002E-10, 3146.559
DataValue, 0.2, 2.30232E-10, 3076.438
DataValue, 0.18, 2.3045300000000002E-10, 3132.977
DataValue, 0.16, 2.3059600000000003E-10, 3140.822
DataValue, 0.14, 2.3076200000000003E-10, 3050.073
DataValue, 0.12, 2.3094500000000002E-10, 3106.0190000000002
DataValue, 0.1, 2.311E-10, 3076.1910000000003
DataValue, 0.08, 2.31302E-10, 3119.831
DataValue, 0.06, 2.31462E-10, 3139.16
DataValue, 0.04, 2.31618E-10, 3070.293
DataValue, 0.02, 2.3180900000000002E-10, 3047.511
DataValue, 0, 2.3199000000000002E-10, 3065.29
DataValue, -0.02, 2.32158E-10, 3089.14
DataValue, -0.04, 2.3230000000000002E-10, 3131.2380000000003
DataValue, -0.06, 2.3249600000000002E-10, 3160.9500000000003
DataValue, -0.08, 2.3266000000000003E-10, 3129.145
DataValue, -0.1, 2.3282500000000002E-10, 3175.666
DataValue, -0.12, 2.33009E-10, 3070.802
DataValue, -0.14, 2.3317000000000003E-10, 3142.2780000000002
DataValue, -0.16, 2.3335700000000003E-10, 3139.448
DataValue, -0.18, 2.33527E-10, 3114.478
DataValue, -0.2, 2.33686E-10, 3112.513
DataValue, -0.22, 2.3385700000000003E-10, 3129.411
DataValue, -0.24, 2.34035E-10, 3238.743
DataValue, -0.26, 2.3420000000000003E-10, 3057.638
DataValue, -0.28, 2.34392E-10, 3092.355
DataValue, -0.3, 2.34564E-10, 3121.212
DataValue, -0.32, 2.34729E-10, 3170.53
DataValue, -0.34, 2.34902E-10, 3183.068
DataValue, -0.36, 2.3509E-10, 3214.301
DataValue, -0.38, 2.3524400000000004E-10, 3191.002
DataValue, -0.4, 2.35396E-10, 3215.4610000000002
DataValue, -0.42, 2.35614E-10, 3175.335
DataValue, -0.44, 2.35751E-10, 3179.694
DataValue, -0.46, 2.35915E-10, 3213.875
DataValue, -0.48, 2.3605000000000003E-10, 3242.7960000000003
DataValue, -0.5, 2.36289E-10, 3244.051
DataValue, -0.52, 2.36445E-10, 3223.82
DataValue, -0.54, 2.3659900000000003E-10, 3276.992
DataValue, -0.56, 2.36782E-10, 3251.005
DataValue, -0.58, 2.3693600000000003E-10, 3271.052
DataValue, -0.6, 2.37128E-10, 3309.593
DataValue, -0.62, 2.3727500000000004E-10, 3350.638
DataValue, -0.64, 2.37447E-10, 3306.77
DataValue, -0.66, 2.37622E-10, 3374.794
DataValue, -0.68, 2.37776E-10, 3363.652
DataValue, -0.70000000000000007, 2.37947E-10, 3337.462
DataValue, -0.72, 2.38103E-10, 3367.349
DataValue, -0.74, 2.3829E-10, 3397.417
DataValue, -0.76, 2.3845500000000003E-10, 3409.616
DataValue, -0.78, 2.38605E-10, 3393.043
DataValue, -0.8, 2.3882300000000003E-10, 3451.157
DataValue, -0.82000000000000006, 2.38951E-10, 3466.137
DataValue, -0.84, 2.39114E-10, 3521
DataValue, -0.86, 2.39286E-10, 3464.502
DataValue, -0.88, 2.39457E-10, 3690.585
DataValue, -0.9, 2.39605E-10, 3552.558
DataValue, -0.92, 2.3976300000000003E-10, 3607.139
DataValue, -0.94000000000000006, 2.3994E-10, 3597.71
DataValue, -0.96, 2.40111E-10, 3553.533
DataValue, -0.98, 2.40262E-10, 3641.66
DataValue, -1, 2.40405E-10, 3627.3940000000002
DataValue, -1, 2.38834E-10, 654.4086
DataValue, -0.98, 2.38616E-10, 635.9978
DataValue, -0.96, 2.38559E-10, 631.64470000000006
DataValue, -0.94000000000000006, 2.38296E-10, 624.0267
DataValue, -0.92, 2.38204E-10, 619.5578
DataValue, -0.9, 2.37959E-10, 633.48660000000007
DataValue, -0.88, 2.37855E-10, 629.9718
DataValue, -0.86, 2.37689E-10, 616.6824
DataValue, -0.84, 2.37584E-10, 637.2943
DataValue, -0.82000000000000006, 2.3732800000000003E-10, 628.8479
DataValue, -0.8, 2.37144E-10, 628.8755
DataValue, -0.78, 2.3698400000000003E-10, 630.5433
DataValue, -0.76, 2.36867E-10, 619.7531
DataValue, -0.74, 2.3671400000000004E-10, 612.5727
DataValue, -0.72, 2.36566E-10, 630.44950000000006
DataValue, -0.70000000000000007, 2.3630500000000004E-10, 606.9339
DataValue, -0.68, 2.3620100000000003E-10, 634.8467
DataValue, -0.66, 2.3600900000000004E-10, 635.6272
DataValue, -0.64, 2.35908E-10, 624.2875
DataValue, -0.62, 2.35759E-10, 623.6611
DataValue, -0.6, 2.35506E-10, 610.2966
DataValue, -0.58, 2.35295E-10, 632.77010000000007
DataValue, -0.56, 2.35296E-10, 609.017
DataValue, -0.54, 2.3502700000000004E-10, 630.3132
DataValue, -0.52, 2.3491800000000004E-10, 634.3218
DataValue, -0.5, 2.34721E-10, 624.75110000000006
DataValue, -0.48, 2.3457E-10, 609.5263
DataValue, -0.46, 2.34422E-10, 621.3153
DataValue, -0.44, 2.34283E-10, 622.6869
DataValue, -0.42, 2.34028E-10, 612.8555
DataValue, -0.4, 2.33842E-10, 616.95440000000008
DataValue, -0.38, 2.3361100000000004E-10, 616.3311
DataValue, -0.36, 2.33557E-10, 639.26830000000007
DataValue, -0.34, 2.3344700000000003E-10, 603.8819
DataValue, -0.32, 2.33304E-10, 612.5325
DataValue, -0.3, 2.33065E-10, 618.5705
DataValue, -0.28, 2.32853E-10, 627.6182
DataValue, -0.26, 2.3271100000000003E-10, 596.0789
DataValue, -0.24, 2.32483E-10, 614.1536
DataValue, -0.22, 2.3234400000000003E-10, 610.6404
DataValue, -0.2, 2.3220100000000002E-10, 633.5375
DataValue, -0.18, 2.3208300000000001E-10, 622.2539
DataValue, -0.16, 2.31853E-10, 605.043
DataValue, -0.14, 2.3178000000000003E-10, 615.3364
DataValue, -0.12, 2.3157800000000003E-10, 617.3604
DataValue, -0.1, 2.3137300000000002E-10, 628.412
DataValue, -0.08, 2.3112300000000003E-10, 614.2789
DataValue, -0.06, 2.30986E-10, 612.7074
DataValue, -0.04, 2.30901E-10, 609.0782
DataValue, -0.02, 2.30639E-10, 639.26190000000008
DataValue, 0, 2.3054500000000003E-10, 619.505
DataValue, 0.02, 2.3035700000000002E-10, 606.3694
DataValue, 0.04, 2.3019200000000003E-10, 614.34530000000007
DataValue, 0.06, 2.2999200000000002E-10, 617.73890000000006
DataValue, 0.08, 2.29922E-10, 613.7519
DataValue, 0.1, 2.2975500000000003E-10, 609.1792
DataValue, 0.12, 2.2942000000000002E-10, 622.93490000000008
DataValue, 0.14, 2.2936300000000002E-10, 612.8348
DataValue, 0.16, 2.29223E-10, 608.42090000000007
DataValue, 0.18, 2.2897E-10, 596.63700000000006
DataValue, 0.2, 2.28843E-10, 597.578
DataValue, 0.22, 2.2857000000000002E-10, 629.4969
DataValue, 0.24, 2.2846200000000002E-10, 631.1977
DataValue, 0.26, 2.2831E-10, 620.17140000000006
DataValue, 0.28, 2.2821100000000002E-10, 631.9333
DataValue, 0.3, 2.2793100000000002E-10, 636.38110000000006
DataValue, 0.32, 2.2783200000000002E-10, 621.8918
DataValue, 0.34, 2.2764000000000003E-10, 622.1666
DataValue, 0.36, 2.27433E-10, 633.3016
DataValue, 0.38, 2.2739800000000002E-10, 615.8654
DataValue, 0.4, 2.2713700000000003E-10, 628.9362
DataValue, 0.42, 2.27011E-10, 614.2399
DataValue, 0.44, 2.26897E-10, 617.69950000000006
DataValue, 0.46, 2.2660200000000002E-10, 619.4867
DataValue, 0.48, 2.26553E-10, 632.4373
DataValue, 0.5, 2.262E-10, 640.65640000000008
DataValue, 0.52, 2.2608500000000003E-10, 625.9674
DataValue, 0.54, 2.2585200000000002E-10, 617.9611
DataValue, 0.56, 2.2566900000000003E-10, 618.8183
DataValue, 0.58, 2.25625E-10, 631.2417
DataValue, 0.6, 2.2546100000000002E-10, 634.3782
DataValue, 0.62, 2.2529600000000003E-10, 597.283
DataValue, 0.64, 2.2518100000000003E-10, 621.71710000000007
DataValue, 0.66, 2.24869E-10, 631.39150000000006
