
SetupTitle, C-V Sweep
PrimitiveTest, C-V Sweep
TestParameter, Channel.UnitTyp, CMU
TestParameter, Channel.Unit, CMU1:MF/SC
TestParameter, Channel.IName, 
TestParameter, Channel.VName, VBias
TestParameter, Channel.Mode, 
TestParameter, Channel.Func, VAR1
TestParameter, Channel.Index, 
TestParameter, Channel.Time, 
TestParameter, Measurement.Primary.Locus, Double
TestParameter, Measurement.Primary.Scale, LINEAR
TestParameter, Measurement.Primary.Start, -2
TestParameter, Measurement.Primary.Stop, 2
TestParameter, Measurement.Primary.Step, 0.04
TestParameter, Measurement.Aborting.Condition, CONTINUE AT ANY
TestParameter, Measurement.PostOutput.Value, START
TestParameter, Measurement.PostOutput.Retention, OFF
TestParameter, Measurement.Secondary.ACLevel, 0.05
TestParameter, Measurement.Secondary.FName, Freq
TestParameter, Measurement.Secondary.Frequency, 1000, 10000, 100000, 1000000
TestParameter, Measurement.Bias.Source, 0
TestParameter, Measurement.ImpedanceMode.Model, Cs-Rs
TestParameter, Measurement.ImpedanceMode.CName, C
TestParameter, Measurement.ImpedanceMode.LName, L
TestParameter, Measurement.ImpedanceMode.GName, G
TestParameter, Measurement.ImpedanceMode.RName, R
TestParameter, Measurement.ImpedanceMode.QName, Q
TestParameter, Measurement.ImpedanceMode.DName, D
TestParameter, Measurement.ImpedanceMode.YName, Y
TestParameter, Measurement.ImpedanceMode.ZName, Z
TestParameter, Measurement.ImpedanceMode.ThName, Theta
TestParameter, Measurement.ImpedanceMode.BName, B
TestParameter, Measurement.ImpedanceMode.XName, X
TestParameter, Measurement.Monitor.Unit, CMU1:MF/SC
TestParameter, Measurement.Monitor.RangingMode, AUTO
TestParameter, Measurement.Monitor.RangeBoundary, 50
TestParameter, Measurement.Monitor.AcMonitorSymbol, 
TestParameter, Measurement.Monitor.DcMonitorSymbol, 
TestParameter, Measurement.Timing.Hold, 0
TestParameter, Measurement.Timing.Delay, 0
TestParameter, Measurement.Adc.UnitType, Cmu, Smu
TestParameter, Measurement.Adc.HighResolution.Mode, AUTO, AUTO
TestParameter, Measurement.Adc.HighResolution.Coeff, 2, 6
TestParameter, Measurement.WaitTime.Source.Coeff, 1
TestParameter, Measurement.WaitTime.Source.Offset, 0
TestParameter, Measurement.WaitTime.Monitor.Coeff, 1
TestParameter, Measurement.WaitTime.Monitor.Offset, 0
TestParameter, Output.Graph.Enabled, true
TestParameter, Output.Graph.AutoScaling, false
TestParameter, Output.Graph.XAxis.Data, VBias
TestParameter, Output.Graph.XAxis.Scale, Linear
TestParameter, Output.Graph.XAxis.Left, -0.1
TestParameter, Output.Graph.XAxis.Right, 0.1
TestParameter, Output.Graph.XAxis.RunTimeAutoScale, true
TestParameter, Output.Graph.YAxis.Data, C, R
TestParameter, Output.Graph.YAxis.Scale, Linear, Linear
TestParameter, Output.Graph.YAxis.Bottom, 0, 0
TestParameter, Output.Graph.YAxis.Top, 1E-10, 10000
TestParameter, Output.Graph.YAxis.Group, , 
TestParameter, Output.Graph.YAxis.RunTimeAutoScale, true, true
TestParameter, AutoAnalysis.Interpolation, false
TestParameter, AutoAnalysis.Line1.Enabled, false
TestParameter, AutoAnalysis.Line1.Type, 1
TestParameter, AutoAnalysis.Line1.Fix, True
TestParameter, AutoAnalysis.Line1.YAxis, 0
TestParameter, AutoAnalysis.Line1.Point1.Type, 0
TestParameter, AutoAnalysis.Line1.Point1.XY.X, 
TestParameter, AutoAnalysis.Line1.Point1.XY.Y, 
TestParameter, AutoAnalysis.Line1.Point1.Data.Var, 
TestParameter, AutoAnalysis.Line1.Point1.Data.Condition, 
TestParameter, AutoAnalysis.Line1.Point1.Data.Start, false
TestParameter, AutoAnalysis.Line1.Point1.Data.StartVar, 
TestParameter, AutoAnalysis.Line1.Point1.Data.StartCondition, 
TestParameter, AutoAnalysis.Line1.Point2.Type, 0
TestParameter, AutoAnalysis.Line1.Point2.XY.X, 
TestParameter, AutoAnalysis.Line1.Point2.XY.Y, 
TestParameter, AutoAnalysis.Line1.Point2.Data.Var, 
TestParameter, AutoAnalysis.Line1.Point2.Data.Condition, 
TestParameter, AutoAnalysis.Line1.Point2.Data.Start, false
TestParameter, AutoAnalysis.Line1.Point2.Data.StartVar, 
TestParameter, AutoAnalysis.Line1.Point2.Data.StartCondition, 
TestParameter, AutoAnalysis.Line1.GradientExpr, 0
TestParameter, AutoAnalysis.Line2.Enabled, false
TestParameter, AutoAnalysis.Line2.Type, 1
TestParameter, AutoAnalysis.Line2.Fix, True
TestParameter, AutoAnalysis.Line2.YAxis, 0
TestParameter, AutoAnalysis.Line2.Point1.Type, 0
TestParameter, AutoAnalysis.Line2.Point1.XY.X, 
TestParameter, AutoAnalysis.Line2.Point1.XY.Y, 
TestParameter, AutoAnalysis.Line2.Point1.Data.Var, 
TestParameter, AutoAnalysis.Line2.Point1.Data.Condition, 
TestParameter, AutoAnalysis.Line2.Point1.Data.Start, false
TestParameter, AutoAnalysis.Line2.Point1.Data.StartVar, 
TestParameter, AutoAnalysis.Line2.Point1.Data.StartCondition, 
TestParameter, AutoAnalysis.Line2.Point2.Type, 0
TestParameter, AutoAnalysis.Line2.Point2.XY.X, 
TestParameter, AutoAnalysis.Line2.Point2.XY.Y, 
TestParameter, AutoAnalysis.Line2.Point2.Data.Var, 
TestParameter, AutoAnalysis.Line2.Point2.Data.Condition, 
TestParameter, AutoAnalysis.Line2.Point2.Data.Start, false
TestParameter, AutoAnalysis.Line2.Point2.Data.StartVar, 
TestParameter, AutoAnalysis.Line2.Point2.Data.StartCondition, 
TestParameter, AutoAnalysis.Line2.GradientExpr, 0
TestParameter, AutoAnalysis.Marker.Enabled, false
TestParameter, AutoAnalysis.Marker.Data.Var, 
TestParameter, AutoAnalysis.Marker.Data.Condition, 
TestParameter, AutoAnalysis.Marker.Data.Start, false
TestParameter, AutoAnalysis.Marker.Data.StartVar, 
TestParameter, AutoAnalysis.Marker.Data.StartCondition, 
MetaData, TestRecord.EntryPoint, true
MetaData, TestRecord.RecordTime, 11/15/2019 06:15:54
MetaData, TestRecord.TestTarget, Al_2.0_10_n
MetaData, TestRecord.IterationIndex, 11
MetaData, TestRecord.Preservation, true
MetaData, TestRecord.Flag, 
MetaData, TestRecord.Remarks, 
MetaData, TestRecord.LinkKey, df366dad-c13f-453f-b1e1-722bdff4df81
Dimension1, 202, 202, 202
Dimension2, 4, 4, 4
DataName, VBias, C, R
DataValue, -2, 2.4410199999999997E-06, 7553.974
DataValue, -1.96, 1.7020799999999999E-06, 7719.926
DataValue, -1.92, 4.96579E-06, 7770.344
DataValue, -1.8800000000000001, 3.90892E-06, 7837.743
DataValue, -1.84, 2.0956999999999997E-06, 7942.616
DataValue, -1.8, 1.5285699999999999E-06, 8036.9220000000005
DataValue, -1.76, 2.79264E-06, 8140.713
DataValue, -1.72, 2.0387199999999998E-06, 8139.7080000000005
DataValue, -1.68, 2.27916E-06, 8218.856
DataValue, -1.6400000000000001, 1.8292999999999998E-06, 8317.878
DataValue, -1.6, 4.0335099999999994E-06, 8378.764000000001
DataValue, -1.56, 5.71399E-06, 8413.141
DataValue, -1.52, 2.7775499999999998E-06, 8444.847
DataValue, -1.48, 2.6463699999999998E-06, 8529.103000000001
DataValue, -1.44, 2.77932E-06, 8600.059
DataValue, -1.4000000000000001, 2.2510299999999997E-06, 8697.162
DataValue, -1.36, 1.9338799999999997E-06, 8753.137
DataValue, -1.32, 2.0329E-06, 8812.6660000000011
DataValue, -1.28, 1.65696E-06, 8916.155
DataValue, -1.24, 3.02595E-06, 8952.386
DataValue, -1.2, 2.9662599999999996E-06, 8960.321
DataValue, -1.16, 2.15915E-06, 9025.344000000001
DataValue, -1.12, 2.58744E-06, 8960.121000000001
DataValue, -1.08, 2.15016E-06, 9109.633
DataValue, -1.04, 2.1733499999999997E-06, 9173.644
DataValue, -1, 2.5627799999999997E-06, 9160.163
DataValue, -0.96, 2.3161599999999997E-06, 9284.577
DataValue, -0.92, 2.01333E-06, 9380.174
DataValue, -0.88, 2.62447E-06, 9408.673
DataValue, -0.84, 1.7676299999999998E-06, 9465.459
DataValue, -0.8, 4.3374999999999996E-06, 9487.796
DataValue, -0.76, 2.9481899999999997E-06, 9614.882
DataValue, -0.72, 2.5770199999999998E-06, 9717.789
DataValue, -0.68, 1.71538E-06, 9903.116
DataValue, -0.64, 2.81424E-06, 10049.53
DataValue, -0.6, 3.3752399999999997E-06, 10181.35
DataValue, -0.56, 2.31445E-06, 10386.56
DataValue, -0.52, 2.22864E-06, 10641.29
DataValue, -0.48, 2.23794E-06, 10891.08
DataValue, -0.44, 2.41778E-06, 11158.08
DataValue, -0.4, 2.6981199999999998E-06, 11489.550000000001
DataValue, -0.36, 2.38075E-06, 11938.61
DataValue, -0.32, 2.92276E-06, 12367.5
DataValue, -0.28, 2.74629E-06, 12862.630000000001
DataValue, -0.24, 2.6642399999999997E-06, 13608.85
DataValue, -0.2, 1.7974E-06, 14890.01
DataValue, -0.16, 1.10618E-06, 17276.32
DataValue, -0.12, 5.15018E-07, 22199.38
DataValue, -0.08, 1.7585899999999999E-07, 32581.09
DataValue, -0.04, 4.99648E-08, 54450.83
DataValue, 0, 1.5314E-08, 91928
DataValue, 0.04, 6.97458E-09, 131299.6
DataValue, 0.08, 5.7501E-09, 143028.4
DataValue, 0.12, 7.11006E-09, 129507.6
DataValue, 0.16, 1.02697E-08, 109142.3
DataValue, 0.2, 1.50836E-08, 90990.32
DataValue, 0.24, 2.23302E-08, 75543.91
DataValue, 0.28, 3.28101E-08, 63290.340000000004
DataValue, 0.32, 4.6844200000000003E-08, 53643.12
DataValue, 0.36, 6.70192E-08, 45740.22
DataValue, 0.4, 9.06365E-08, 39284.8
DataValue, 0.44, 1.18717E-07, 34173.590000000004
DataValue, 0.48, 1.6514299999999999E-07, 29676.75
DataValue, 0.52, 2.11757E-07, 26288.75
DataValue, 0.56, 2.83856E-07, 23380.23
DataValue, 0.6, 3.39209E-07, 20915.3
DataValue, 0.64, 4.68328E-07, 18774.920000000002
DataValue, 0.68, 5.2083399999999994E-07, 16967.55
DataValue, 0.72, 6.96618E-07, 15437.33
DataValue, 0.76, 8.09187E-07, 14145.73
DataValue, 0.8, 9.27897E-07, 13014.44
DataValue, 0.84, 1.14814E-06, 12052.97
DataValue, 0.88, 1.40998E-06, 11212.43
DataValue, 0.92, 1.5809499999999999E-06, 10482.99
DataValue, 0.96, 1.8843599999999999E-06, 9828.385
DataValue, 1, 2.00562E-06, 9296.354
DataValue, 1.04, 2.32378E-06, 8771.353000000001
DataValue, 1.08, 2.3918599999999997E-06, 8333.856
DataValue, 1.12, 2.57298E-06, 7926.2840000000006
DataValue, 1.16, 2.7719499999999998E-06, 7572.195
DataValue, 1.2, 3.0337699999999997E-06, 7238.379
DataValue, 1.24, 3.20201E-06, 6943.154
DataValue, 1.28, 3.94946E-06, 6678.5740000000005
DataValue, 1.32, 3.47801E-06, 6446.89
DataValue, 1.36, 3.7530099999999997E-06, 6224.299
DataValue, 1.4000000000000001, 4.14885E-06, 6024.143
DataValue, 1.44, 5.1995999999999993E-06, 5839.495
DataValue, 1.48, 4.7278799999999995E-06, 5670.791
DataValue, 1.52, 5.3225499999999995E-06, 5512.048
DataValue, 1.56, 4.1584799999999995E-06, 5371.271
DataValue, 1.6, 5.0808199999999994E-06, 5238.6590000000006
DataValue, 1.6400000000000001, 5.3370899999999994E-06, 5120.952
DataValue, 1.68, 9.57065E-06, 5002.559
DataValue, 1.72, 6.5179799999999996E-06, 4897.483
DataValue, 1.76, 7.2102499999999993E-06, 4795.427
DataValue, 1.8, 7.37344E-06, 4701.81
DataValue, 1.84, 7.4998899999999993E-06, 4618.084
DataValue, 1.8800000000000001, 8.80289E-06, 4539.867
DataValue, 1.92, 8.51789E-06, 4455.542
DataValue, 1.96, 1.1548300000000001E-05, 4368.376
DataValue, 2, 1.1845900000000001E-05, 4308.561
DataValue, 2, 7.47274E-06, 4313.407
DataValue, 1.96, 9.17247E-06, 4399.264
DataValue, 1.92, 7.4054599999999994E-06, 4473.979
DataValue, 1.8800000000000001, 8.0041E-06, 4556.738
DataValue, 1.84, 6.99231E-06, 4646.746
DataValue, 1.8, 7.66923E-06, 4739.956
DataValue, 1.76, 6.4955999999999993E-06, 4844.168
DataValue, 1.72, 5.89027E-06, 4950.634
DataValue, 1.68, 6.47402E-06, 5064.9000000000005
DataValue, 1.6400000000000001, 5.5560899999999993E-06, 5190.77
DataValue, 1.6, 5.60648E-06, 5325.427
DataValue, 1.56, 4.88768E-06, 5467.001
DataValue, 1.52, 5.50562E-06, 5621.984
DataValue, 1.48, 4.29318E-06, 5792.609
DataValue, 1.44, 4.32842E-06, 5970.588
DataValue, 1.4000000000000001, 3.97758E-06, 6174.532
DataValue, 1.36, 3.84366E-06, 6391.055
DataValue, 1.32, 3.71274E-06, 6629.4220000000005
DataValue, 1.28, 3.26303E-06, 6880.082
DataValue, 1.24, 3.09724E-06, 7174.3550000000005
DataValue, 1.2, 3.0510899999999996E-06, 7479.3330000000005
DataValue, 1.16, 2.6558199999999998E-06, 7854.008
DataValue, 1.12, 2.28614E-06, 8234.648000000001
DataValue, 1.08, 2.12744E-06, 8674.319
DataValue, 1.04, 1.95313E-06, 9173.123
DataValue, 1, 1.68364E-06, 9727.001
DataValue, 0.96, 1.41996E-06, 10323.4
DataValue, 0.92, 1.35866E-06, 11075.97
DataValue, 0.88, 1.08809E-06, 11890.19
DataValue, 0.84, 1.03772E-06, 12820.800000000001
DataValue, 0.8, 8.65066E-07, 13871.04
DataValue, 0.76, 7.2084999999999995E-07, 15106.42
DataValue, 0.72, 6.02809E-07, 16540.71
DataValue, 0.68, 4.60823E-07, 18282.66
DataValue, 0.64, 3.81742E-07, 20263.18
DataValue, 0.6, 3.0710699999999997E-07, 22565.48
DataValue, 0.56, 2.43581E-07, 25337.3
DataValue, 0.52, 1.92063E-07, 28572.05
DataValue, 0.48, 1.40794E-07, 32529.010000000002
DataValue, 0.44, 1.0593799999999999E-07, 37084.05
DataValue, 0.4, 7.74262E-08, 42626.3
DataValue, 0.36, 5.6396500000000005E-08, 49486.31
DataValue, 0.32, 4.0658E-08, 57749.6
DataValue, 0.28, 2.8405000000000002E-08, 67457.290000000008
DataValue, 0.24, 1.98378E-08, 79949.650000000009
DataValue, 0.2, 1.37424E-08, 95306.21
DataValue, 0.16, 9.57483E-09, 113076.40000000001
DataValue, 0.12, 6.82568E-09, 132130.2
DataValue, 0.08, 5.73861E-09, 143856.7
DataValue, 0.04, 6.80766E-09, 133280.5
DataValue, 0, 1.4882E-08, 93745.49
DataValue, -0.04, 4.8358400000000004E-08, 55865.96
DataValue, -0.08, 1.63896E-07, 34095.75
DataValue, -0.12, 4.7348E-07, 23441.54
DataValue, -0.16, 1.04006E-06, 18375.05
DataValue, -0.2, 1.6062499999999999E-06, 15971.37
DataValue, -0.24, 2.17299E-06, 14740.210000000001
DataValue, -0.28, 1.8248999999999999E-06, 13848.57
DataValue, -0.32, 2.07811E-06, 13362.06
DataValue, -0.36, 1.9909399999999997E-06, 12773.130000000001
DataValue, -0.4, 2.1005499999999997E-06, 12370.23
DataValue, -0.44, 2.05243E-06, 11912.41
DataValue, -0.48, 2.41788E-06, 11571.85
DataValue, -0.52, 3.02433E-06, 11175.050000000001
DataValue, -0.56, 2.71844E-06, 10926
DataValue, -0.6, 2.35384E-06, 10743.78
DataValue, -0.64, 2.15667E-06, 10520.4
DataValue, -0.68, 1.8718699999999998E-06, 10422.300000000001
DataValue, -0.72, 3.54331E-06, 10229.630000000001
DataValue, -0.76, 2.2956499999999998E-06, 10111.69
DataValue, -0.8, 2.34736E-06, 10049.19
DataValue, -0.84, 2.16794E-06, 10011.39
DataValue, -0.88, 2.73015E-06, 9878.506
DataValue, -0.92, 1.99273E-06, 9872.492
DataValue, -0.96, 2.3709499999999997E-06, 9821.57
DataValue, -1, 2.7382699999999997E-06, 9674.899
DataValue, -1.04, 1.70902E-06, 9714.977
DataValue, -1.08, 2.1824199999999998E-06, 9644.671
DataValue, -1.12, 1.5016499999999998E-06, 9538.884
DataValue, -1.16, 2.3366899999999997E-06, 9489.52
DataValue, -1.2, 2.46048E-06, 9386.498
DataValue, -1.24, 3.65973E-06, 9287.054
DataValue, -1.28, 1.56743E-06, 9164.02
DataValue, -1.32, 1.61667E-06, 9115.803
DataValue, -1.36, 2.72349E-06, 9055.352
DataValue, -1.4000000000000001, 2.70812E-05, 8926.502
DataValue, -1.44, 3.2803099999999996E-06, 8834.355
DataValue, -1.48, 1.89442E-06, 8747.957
DataValue, -1.52, 1.8444299999999999E-06, 8707.607
DataValue, -1.56, 1.7321899999999998E-06, 8672.171
DataValue, -1.6, 2.15941E-06, 8602.765
DataValue, -1.6400000000000001, 1.73428E-06, 8495.273000000001
DataValue, -1.68, 7.27466E-06, 8495.949
DataValue, -1.72, 1.8871E-06, 8412.079
DataValue, -1.76, 2.31766E-06, 8338.668
DataValue, -1.8, 2.03164E-06, 8296.337
DataValue, -1.84, 3.1388499999999996E-06, 8254.089
DataValue, -1.8800000000000001, 1.27465E-06, 8214.444
DataValue, -1.92, 2.31129E-06, 8099.376
DataValue, -1.96, 3.7001699999999998E-06, 8054.652
DataValue, -2, 1.17694E-06, 7980.9670000000006
DataValue, -2, 6.1560800000000007E-08, 7966.359
DataValue, -1.96, 5.7450300000000005E-08, 8051.876
DataValue, -1.92, 6.01971E-08, 8040.068
DataValue, -1.8800000000000001, 5.91916E-08, 8119.566
DataValue, -1.84, 5.74086E-08, 8151.803
DataValue, -1.8, 6.24759E-08, 8222.923
DataValue, -1.76, 6.10867E-08, 8295.722
DataValue, -1.72, 5.74944E-08, 8336.729
DataValue, -1.68, 5.6494500000000003E-08, 8404.9420000000009
DataValue, -1.6400000000000001, 5.3692900000000004E-08, 8535.717
DataValue, -1.6, 5.14892E-08, 8586.685
DataValue, -1.56, 5.0253800000000004E-08, 8588.225
DataValue, -1.52, 5.4713300000000005E-08, 8672.578
DataValue, -1.48, 5.9733700000000008E-08, 8722.207
DataValue, -1.44, 5.54918E-08, 8765.4160000000011
DataValue, -1.4000000000000001, 4.96498E-08, 8869.769
DataValue, -1.36, 5.25977E-08, 8886.812
DataValue, -1.32, 5.1669500000000005E-08, 8921.418
DataValue, -1.28, 5.40595E-08, 8976.524
DataValue, -1.24, 5.1696E-08, 9026.933
DataValue, -1.2, 4.8537800000000003E-08, 9124.533
DataValue, -1.16, 4.9914700000000004E-08, 9181.111
DataValue, -1.12, 5.64435E-08, 9297.381
DataValue, -1.08, 4.79401E-08, 9304.832
DataValue, -1.04, 4.83374E-08, 9400.412
DataValue, -1, 4.8896500000000004E-08, 9457.236
DataValue, -0.96, 4.72972E-08, 9550.188
DataValue, -0.92, 5.12526E-08, 9594.029
DataValue, -0.88, 4.82328E-08, 9609.685
DataValue, -0.84, 4.73355E-08, 9703.59
DataValue, -0.8, 4.77877E-08, 9865.295
DataValue, -0.76, 5.0666E-08, 9945.649
DataValue, -0.72, 5.08532E-08, 10077.06
DataValue, -0.68, 4.93169E-08, 10219.1
DataValue, -0.64, 4.5905800000000003E-08, 10341.22
DataValue, -0.6, 4.6107500000000004E-08, 10493.880000000001
DataValue, -0.56, 4.4604800000000004E-08, 10774.23
DataValue, -0.52, 4.14437E-08, 10996.98
DataValue, -0.48, 4.05046E-08, 11274.960000000001
DataValue, -0.44, 3.97053E-08, 11630.75
DataValue, -0.4, 3.66163E-08, 12018.94
DataValue, -0.36, 3.5683400000000004E-08, 12378.74
DataValue, -0.32, 3.3184900000000004E-08, 12866.76
DataValue, -0.28, 3.03978E-08, 13425.08
DataValue, -0.24, 2.63582E-08, 14162.06
DataValue, -0.2, 1.94458E-08, 15406.84
DataValue, -0.16, 1.16239E-08, 17675.600000000002
DataValue, -0.12, 5.33075E-09, 22137.97
DataValue, -0.08, 1.99699E-09, 30266.440000000002
DataValue, -0.04, 7.51054E-10, 40463.18
DataValue, 0, 3.8647300000000004E-10, 43114.41
DataValue, 0.04, 3.01092E-10, 39121.98
DataValue, 0.08, 2.88817E-10, 37664.81
DataValue, 0.12, 3.0486E-10, 39339.86
DataValue, 0.16, 3.3948600000000005E-10, 41406.340000000004
DataValue, 0.2, 3.9621300000000005E-10, 42844.08
DataValue, 0.24, 4.79964E-10, 42859.71
DataValue, 0.28, 5.9996200000000008E-10, 41643.68
DataValue, 0.32, 7.6568900000000006E-10, 39337.67
DataValue, 0.36, 9.9558500000000013E-10, 36517.31
DataValue, 0.4, 1.31824E-09, 33334.520000000004
DataValue, 0.44, 1.7432E-09, 30223.97
DataValue, 0.48, 2.30938E-09, 27228.440000000002
DataValue, 0.52, 3.05187E-09, 24483.510000000002
DataValue, 0.56, 4.03409E-09, 21995.38
DataValue, 0.6, 5.18195E-09, 19949.56
DataValue, 0.64, 6.63598E-09, 18065.16
DataValue, 0.68, 8.44086E-09, 16443.33
DataValue, 0.72, 1.06629E-08, 15002.470000000001
DataValue, 0.76, 1.32912E-08, 13759.94
DataValue, 0.8, 1.6172200000000002E-08, 12710.94
DataValue, 0.84, 1.94387E-08, 11795.99
DataValue, 0.88, 2.33087E-08, 10993.29
DataValue, 0.92, 2.78932E-08, 10282.15
DataValue, 0.96, 3.23314E-08, 9667.879
DataValue, 1, 3.79003E-08, 9140.058
DataValue, 1.04, 4.38243E-08, 8643.363
DataValue, 1.08, 5.04793E-08, 8194.467
DataValue, 1.12, 5.749E-08, 7802.213
DataValue, 1.16, 6.49876E-08, 7459.387
DataValue, 1.2, 7.41241E-08, 7140.59
DataValue, 1.24, 8.31079E-08, 6858.011
DataValue, 1.28, 9.2131E-08, 6598.421
DataValue, 1.32, 9.83789E-08, 6362.453
DataValue, 1.36, 1.12116E-07, 6149.073
DataValue, 1.4000000000000001, 1.25106E-07, 5959.079
DataValue, 1.44, 1.35409E-07, 5777.484
DataValue, 1.48, 1.54419E-07, 5614.02
DataValue, 1.52, 1.67482E-07, 5464.503
DataValue, 1.56, 1.74606E-07, 5319.345
DataValue, 1.6, 1.9259599999999999E-07, 5189.479
DataValue, 1.6400000000000001, 2.21441E-07, 5068.499
DataValue, 1.68, 2.25202E-07, 4957.3240000000005
DataValue, 1.72, 2.42709E-07, 4853.725
DataValue, 1.76, 2.52385E-07, 4756.6630000000005
DataValue, 1.8, 2.7756E-07, 4673.963
DataValue, 1.84, 2.97392E-07, 4585.401
DataValue, 1.8800000000000001, 3.17416E-07, 4499.3060000000005
DataValue, 1.92, 3.3775399999999997E-07, 4423.302
DataValue, 1.96, 3.68973E-07, 4354.466
DataValue, 2, 4.09037E-07, 4281.435
DataValue, 2, 3.72859E-07, 4293.328
DataValue, 1.96, 3.35882E-07, 4368.554
