
SetupTitle, C-V Sweep
PrimitiveTest, C-V Sweep
TestParameter, Channel.UnitTyp, CMU
TestParameter, Channel.Unit, CMU1:MF/SC
TestParameter, Channel.IName, 
TestParameter, Channel.VName, VBias
TestParameter, Channel.Mode, 
TestParameter, Channel.Func, VAR1
TestParameter, Channel.Index, 
TestParameter, Channel.Time, 
TestParameter, Measurement.Primary.Locus, Double
TestParameter, Measurement.Primary.Scale, LINEAR
TestParameter, Measurement.Primary.Start, -1
TestParameter, Measurement.Primary.Stop, 1
TestParameter, Measurement.Primary.Step, 0.02
TestParameter, Measurement.Aborting.Condition, CONTINUE AT ANY
TestParameter, Measurement.PostOutput.Value, START
TestParameter, Measurement.PostOutput.Retention, OFF
TestParameter, Measurement.Secondary.ACLevel, 0.05
TestParameter, Measurement.Secondary.FName, Freq
TestParameter, Measurement.Secondary.Frequency, 1000, 10000, 100000, 1000000
TestParameter, Measurement.Bias.Source, 0
TestParameter, Measurement.ImpedanceMode.Model, Cs-Rs
TestParameter, Measurement.ImpedanceMode.CName, C
TestParameter, Measurement.ImpedanceMode.LName, L
TestParameter, Measurement.ImpedanceMode.GName, G
TestParameter, Measurement.ImpedanceMode.RName, R
TestParameter, Measurement.ImpedanceMode.QName, Q
TestParameter, Measurement.ImpedanceMode.DName, D
TestParameter, Measurement.ImpedanceMode.YName, Y
TestParameter, Measurement.ImpedanceMode.ZName, Z
TestParameter, Measurement.ImpedanceMode.ThName, Theta
TestParameter, Measurement.ImpedanceMode.BName, B
TestParameter, Measurement.ImpedanceMode.XName, X
TestParameter, Measurement.Monitor.Unit, CMU1:MF/SC
TestParameter, Measurement.Monitor.RangingMode, AUTO
TestParameter, Measurement.Monitor.RangeBoundary, 50
TestParameter, Measurement.Monitor.AcMonitorSymbol, 
TestParameter, Measurement.Monitor.DcMonitorSymbol, 
TestParameter, Measurement.Timing.Hold, 0
TestParameter, Measurement.Timing.Delay, 0
TestParameter, Measurement.Adc.UnitType, Cmu, Smu
TestParameter, Measurement.Adc.HighResolution.Mode, AUTO, AUTO
TestParameter, Measurement.Adc.HighResolution.Coeff, 2, 6
TestParameter, Measurement.WaitTime.Source.Coeff, 1
TestParameter, Measurement.WaitTime.Source.Offset, 0
TestParameter, Measurement.WaitTime.Monitor.Coeff, 1
TestParameter, Measurement.WaitTime.Monitor.Offset, 0
TestParameter, Output.Graph.Enabled, true
TestParameter, Output.Graph.AutoScaling, false
TestParameter, Output.Graph.XAxis.Data, VBias
TestParameter, Output.Graph.XAxis.Scale, Linear
TestParameter, Output.Graph.XAxis.Left, -0.1
TestParameter, Output.Graph.XAxis.Right, 0.1
TestParameter, Output.Graph.XAxis.RunTimeAutoScale, true
TestParameter, Output.Graph.YAxis.Data, C, R
TestParameter, Output.Graph.YAxis.Scale, Linear, Linear
TestParameter, Output.Graph.YAxis.Bottom, 0, 0
TestParameter, Output.Graph.YAxis.Top, 1E-10, 10000
TestParameter, Output.Graph.YAxis.Group, , 
TestParameter, Output.Graph.YAxis.RunTimeAutoScale, true, true
TestParameter, AutoAnalysis.Interpolation, false
TestParameter, AutoAnalysis.Line1.Enabled, false
TestParameter, AutoAnalysis.Line1.Type, 1
TestParameter, AutoAnalysis.Line1.Fix, True
TestParameter, AutoAnalysis.Line1.YAxis, 0
TestParameter, AutoAnalysis.Line1.Point1.Type, 0
TestParameter, AutoAnalysis.Line1.Point1.XY.X, 
TestParameter, AutoAnalysis.Line1.Point1.XY.Y, 
TestParameter, AutoAnalysis.Line1.Point1.Data.Var, 
TestParameter, AutoAnalysis.Line1.Point1.Data.Condition, 
TestParameter, AutoAnalysis.Line1.Point1.Data.Start, false
TestParameter, AutoAnalysis.Line1.Point1.Data.StartVar, 
TestParameter, AutoAnalysis.Line1.Point1.Data.StartCondition, 
TestParameter, AutoAnalysis.Line1.Point2.Type, 0
TestParameter, AutoAnalysis.Line1.Point2.XY.X, 
TestParameter, AutoAnalysis.Line1.Point2.XY.Y, 
TestParameter, AutoAnalysis.Line1.Point2.Data.Var, 
TestParameter, AutoAnalysis.Line1.Point2.Data.Condition, 
TestParameter, AutoAnalysis.Line1.Point2.Data.Start, false
TestParameter, AutoAnalysis.Line1.Point2.Data.StartVar, 
TestParameter, AutoAnalysis.Line1.Point2.Data.StartCondition, 
TestParameter, AutoAnalysis.Line1.GradientExpr, 0
TestParameter, AutoAnalysis.Line2.Enabled, false
TestParameter, AutoAnalysis.Line2.Type, 1
TestParameter, AutoAnalysis.Line2.Fix, True
TestParameter, AutoAnalysis.Line2.YAxis, 0
TestParameter, AutoAnalysis.Line2.Point1.Type, 0
TestParameter, AutoAnalysis.Line2.Point1.XY.X, 
TestParameter, AutoAnalysis.Line2.Point1.XY.Y, 
TestParameter, AutoAnalysis.Line2.Point1.Data.Var, 
TestParameter, AutoAnalysis.Line2.Point1.Data.Condition, 
TestParameter, AutoAnalysis.Line2.Point1.Data.Start, false
TestParameter, AutoAnalysis.Line2.Point1.Data.StartVar, 
TestParameter, AutoAnalysis.Line2.Point1.Data.StartCondition, 
TestParameter, AutoAnalysis.Line2.Point2.Type, 0
TestParameter, AutoAnalysis.Line2.Point2.XY.X, 
TestParameter, AutoAnalysis.Line2.Point2.XY.Y, 
TestParameter, AutoAnalysis.Line2.Point2.Data.Var, 
TestParameter, AutoAnalysis.Line2.Point2.Data.Condition, 
TestParameter, AutoAnalysis.Line2.Point2.Data.Start, false
TestParameter, AutoAnalysis.Line2.Point2.Data.StartVar, 
TestParameter, AutoAnalysis.Line2.Point2.Data.StartCondition, 
TestParameter, AutoAnalysis.Line2.GradientExpr, 0
TestParameter, AutoAnalysis.Marker.Enabled, false
TestParameter, AutoAnalysis.Marker.Data.Var, 
TestParameter, AutoAnalysis.Marker.Data.Condition, 
TestParameter, AutoAnalysis.Marker.Data.Start, false
TestParameter, AutoAnalysis.Marker.Data.StartVar, 
TestParameter, AutoAnalysis.Marker.Data.StartCondition, 
MetaData, TestRecord.EntryPoint, true
MetaData, TestRecord.RecordTime, 11/15/2019 06:03:14
MetaData, TestRecord.TestTarget, Al_2.0_10_n
MetaData, TestRecord.IterationIndex, 3
MetaData, TestRecord.Preservation, true
MetaData, TestRecord.Flag, 
MetaData, TestRecord.Remarks, 
MetaData, TestRecord.LinkKey, d99c60ed-4172-4214-878e-5c6da1ab2684
Dimension1, 202, 202, 202
Dimension2, 4, 4, 4
DataName, VBias, C, R
DataValue, -1, 3.77473E-07, 24933.66
DataValue, -0.98, 3.9324499999999997E-07, 24745.2
DataValue, -0.96, 3.34443E-07, 25053.77
DataValue, -0.94000000000000006, 3.5360299999999997E-07, 25000.09
DataValue, -0.92, 3.45637E-07, 25292.64
DataValue, -0.9, 4.07917E-07, 25836.14
DataValue, -0.88, 3.79779E-07, 25707.14
DataValue, -0.86, 4.91561E-07, 25979.45
DataValue, -0.84, 4.1102899999999997E-07, 26280.18
DataValue, -0.82000000000000006, 3.96787E-07, 26723.440000000002
DataValue, -0.8, 3.83729E-07, 27149.12
DataValue, -0.78, 3.44075E-07, 28043.7
DataValue, -0.76, 3.21068E-07, 28302.11
DataValue, -0.74, 3.19143E-07, 28777.72
DataValue, -0.72, 3.4829E-07, 29663.33
DataValue, -0.70000000000000007, 2.65233E-07, 30344.52
DataValue, -0.68, 2.75916E-07, 30619.47
DataValue, -0.66, 2.69649E-07, 31519.920000000002
DataValue, -0.64, 2.50438E-07, 31806.13
DataValue, -0.62, 2.34967E-07, 32678.07
DataValue, -0.6, 2.45986E-07, 33187.58
DataValue, -0.58, 2.24848E-07, 33514.46
DataValue, -0.56, 2.08952E-07, 34297.7
DataValue, -0.54, 2.36579E-07, 34888.55
DataValue, -0.52, 2.01991E-07, 35537.1
DataValue, -0.5, 1.93863E-07, 36780.22
DataValue, -0.48, 1.76947E-07, 37711.93
DataValue, -0.46, 1.67442E-07, 38560.28
DataValue, -0.44, 1.66028E-07, 39469.69
DataValue, -0.42, 1.5482E-07, 40611.37
DataValue, -0.4, 1.45467E-07, 41384.48
DataValue, -0.38, 1.32896E-07, 42255.72
DataValue, -0.36, 1.22426E-07, 43344.92
DataValue, -0.34, 1.15083E-07, 44810.090000000004
DataValue, -0.32, 1.0903199999999999E-07, 46189.36
DataValue, -0.3, 9.84415E-08, 47919.9
DataValue, -0.28, 8.8574200000000007E-08, 49862.74
DataValue, -0.26, 8.13137E-08, 52433.35
DataValue, -0.24, 6.98071E-08, 54867.380000000005
DataValue, -0.22, 5.8932E-08, 58353.78
DataValue, -0.2, 4.8300400000000004E-08, 63071.3
DataValue, -0.18, 3.80813E-08, 69051.62
DataValue, -0.16, 2.792E-08, 77774.35
DataValue, -0.14, 1.9060400000000002E-08, 90951.66
DataValue, -0.12, 1.2038E-08, 110417.3
DataValue, -0.1, 6.98949E-09, 138622.2
DataValue, -0.08, 3.72707E-09, 181115.7
DataValue, -0.06, 1.89897E-09, 240656.40000000002
DataValue, -0.04, 9.57151E-10, 310026.2
DataValue, -0.02, 5.2509E-10, 357330.10000000003
DataValue, 0, 3.50136E-10, 341686.60000000003
DataValue, 0.02, 2.81794E-10, 279564.10000000003
DataValue, 0.04, 2.5590800000000003E-10, 219264.2
DataValue, 0.06, 2.46324E-10, 180914.30000000002
DataValue, 0.08, 2.4228E-10, 160469.90000000002
DataValue, 0.1, 2.41224E-10, 153593
DataValue, 0.12, 2.40877E-10, 153344.4
DataValue, 0.14, 2.41606E-10, 158053
DataValue, 0.16, 2.42821E-10, 165989.2
DataValue, 0.18, 2.4438000000000004E-10, 172281.5
DataValue, 0.2, 2.4584900000000003E-10, 180523.90000000002
DataValue, 0.22, 2.48268E-10, 190832.30000000002
DataValue, 0.24, 2.50753E-10, 200938.1
DataValue, 0.26, 2.53695E-10, 211325.90000000002
DataValue, 0.28, 2.5667300000000003E-10, 222919.5
DataValue, 0.3, 2.6074800000000004E-10, 234310.1
DataValue, 0.32, 2.6463400000000003E-10, 245519.90000000002
DataValue, 0.34, 2.69286E-10, 256013.7
DataValue, 0.36, 2.7471200000000004E-10, 267586.5
DataValue, 0.38, 2.7825400000000003E-10, 274220.60000000003
DataValue, 0.4, 2.8408300000000004E-10, 285273.3
DataValue, 0.42, 2.90341E-10, 294032.8
DataValue, 0.44, 2.99091E-10, 304607.3
DataValue, 0.46, 3.05461E-10, 312189.60000000003
DataValue, 0.48, 3.15828E-10, 320550.60000000003
DataValue, 0.5, 3.2423800000000004E-10, 328987.30000000005
DataValue, 0.52, 3.37306E-10, 336745.10000000003
DataValue, 0.54, 3.49191E-10, 342987.60000000003
DataValue, 0.56, 3.6105500000000005E-10, 347556.10000000003
DataValue, 0.58, 3.77799E-10, 352414.80000000005
DataValue, 0.6, 3.9027200000000006E-10, 354779
DataValue, 0.62, 4.0748100000000003E-10, 358238.60000000003
DataValue, 0.64, 4.26529E-10, 360483.10000000003
DataValue, 0.66, 4.4562600000000006E-10, 361196.30000000005
DataValue, 0.68, 4.6621800000000005E-10, 360695.9
DataValue, 0.70000000000000007, 4.84535E-10, 360318.9
DataValue, 0.72, 5.17021E-10, 359109.7
DataValue, 0.74, 5.44486E-10, 357912.7
DataValue, 0.76, 5.71643E-10, 355214.5
DataValue, 0.78, 6.00281E-10, 351060.7
DataValue, 0.8, 6.37887E-10, 348513.10000000003
DataValue, 0.82000000000000006, 6.66594E-10, 345228.4
DataValue, 0.84, 7.02744E-10, 340867.10000000003
DataValue, 0.86, 7.52438E-10, 334169
DataValue, 0.88, 7.98277E-10, 330387.9
DataValue, 0.9, 8.4161400000000009E-10, 324660.4
DataValue, 0.92, 8.8900900000000011E-10, 318355.80000000005
DataValue, 0.94000000000000006, 9.3242700000000013E-10, 312645.3
DataValue, 0.96, 9.99139E-10, 307181.4
DataValue, 0.98, 1.04848E-09, 302841.7
DataValue, 1, 1.10499E-09, 295016.60000000003
DataValue, 1, 1.11307E-09, 296109.3
DataValue, 0.98, 1.05014E-09, 302223.2
DataValue, 0.96, 9.9194300000000012E-10, 308362.2
DataValue, 0.94000000000000006, 9.37034E-10, 313230.7
DataValue, 0.92, 8.9810300000000006E-10, 317660.9
DataValue, 0.9, 8.4171300000000011E-10, 324872.9
DataValue, 0.88, 8.0732600000000011E-10, 327711.4
DataValue, 0.86, 7.6562800000000006E-10, 333468.5
DataValue, 0.84, 7.177460000000001E-10, 338210.80000000005
DataValue, 0.82000000000000006, 6.93294E-10, 342097.30000000005
DataValue, 0.8, 6.4987100000000006E-10, 346169.9
DataValue, 0.78, 6.16265E-10, 349972.2
DataValue, 0.76, 5.8356E-10, 353592.60000000003
DataValue, 0.74, 5.60394E-10, 355430
DataValue, 0.72, 5.2777300000000006E-10, 358055
DataValue, 0.70000000000000007, 5.03425E-10, 360294.10000000003
DataValue, 0.68, 4.82777E-10, 361604.10000000003
DataValue, 0.66, 4.5903400000000005E-10, 361330.9
DataValue, 0.64, 4.4103600000000003E-10, 360614.10000000003
DataValue, 0.62, 4.19219E-10, 358901.9
DataValue, 0.6, 4.0352100000000003E-10, 357429
DataValue, 0.58, 3.8603900000000004E-10, 354500.7
DataValue, 0.56, 3.7316200000000005E-10, 351591.4
DataValue, 0.54, 3.59609E-10, 347801.60000000003
DataValue, 0.52, 3.4691400000000003E-10, 341456.60000000003
DataValue, 0.5, 3.34534E-10, 336265.10000000003
DataValue, 0.48, 3.23295E-10, 328854.5
DataValue, 0.46, 3.1361800000000003E-10, 320870.60000000003
DataValue, 0.44, 3.04155E-10, 311870.9
DataValue, 0.42, 2.95687E-10, 302109.7
DataValue, 0.4, 2.8918000000000003E-10, 292029.7
DataValue, 0.38, 2.82391E-10, 282756.60000000003
DataValue, 0.36, 2.76081E-10, 271809.5
DataValue, 0.34, 2.7082300000000003E-10, 260702.6
DataValue, 0.32, 2.66277E-10, 250007.30000000002
DataValue, 0.3, 2.6174300000000004E-10, 239514.5
DataValue, 0.28, 2.5762500000000003E-10, 225946
DataValue, 0.26, 2.54153E-10, 214652.90000000002
DataValue, 0.24, 2.51746E-10, 205895.5
DataValue, 0.22, 2.48711E-10, 193039.80000000002
DataValue, 0.2, 2.46334E-10, 182731.1
DataValue, 0.18, 2.4446E-10, 171999.2
DataValue, 0.16, 2.4301E-10, 164721.6
DataValue, 0.14, 2.41488E-10, 155678.1
DataValue, 0.12, 2.40797E-10, 150869.4
DataValue, 0.1, 2.4068500000000003E-10, 149500.80000000002
DataValue, 0.08, 2.41701E-10, 155520
DataValue, 0.06, 2.45234E-10, 175685
DataValue, 0.04, 2.5503E-10, 215825.80000000002
DataValue, 0.02, 2.79944E-10, 276470.7
DataValue, 0, 3.4750600000000004E-10, 340664.60000000003
DataValue, -0.02, 5.2118400000000009E-10, 357979.30000000005
DataValue, -0.04, 9.56143E-10, 310607.9
DataValue, -0.06, 1.89337E-09, 241664
DataValue, -0.08, 3.77171E-09, 181319.6
DataValue, -0.1, 7.06126E-09, 138374.30000000002
DataValue, -0.12, 1.2186100000000001E-08, 109622.20000000001
DataValue, -0.14, 1.9386300000000002E-08, 90590.930000000008
DataValue, -0.16, 2.83288E-08, 77846.37
DataValue, -0.18, 3.82078E-08, 69028.47
DataValue, -0.2, 4.92515E-08, 63328.130000000005
DataValue, -0.22, 5.91562E-08, 58972.97
DataValue, -0.24, 7.04753E-08, 55792.23
DataValue, -0.26, 7.99605E-08, 53495.14
DataValue, -0.28, 8.84799E-08, 51338.94
DataValue, -0.3, 9.57443E-08, 49825.43
DataValue, -0.32, 1.07693E-07, 48401.35
DataValue, -0.34, 1.11631E-07, 47444.79
DataValue, -0.36, 1.26146E-07, 46096.47
DataValue, -0.38, 1.2613E-07, 44427.65
DataValue, -0.4, 1.41289E-07, 43693.770000000004
DataValue, -0.42, 1.53082E-07, 42702.200000000004
DataValue, -0.44, 1.55775E-07, 41904.74
DataValue, -0.46, 1.69851E-07, 40729.22
DataValue, -0.48, 1.64803E-07, 39360.41
DataValue, -0.5, 1.91995E-07, 38818.8
DataValue, -0.52, 1.75826E-07, 37849.47
DataValue, -0.54, 2.06316E-07, 37223.88
DataValue, -0.56, 1.92948E-07, 36342.98
DataValue, -0.58, 2.2679099999999998E-07, 35407.83
DataValue, -0.6, 2.13786E-07, 34498.56
DataValue, -0.62, 2.31661E-07, 34217.37
DataValue, -0.64, 2.17743E-07, 33332.69
DataValue, -0.66, 2.634E-07, 32635.09
DataValue, -0.68, 2.73242E-07, 31945.74
DataValue, -0.70000000000000007, 2.63309E-07, 31142.170000000002
DataValue, -0.72, 3.02595E-07, 30567.45
DataValue, -0.74, 2.57852E-07, 30017.920000000002
DataValue, -0.76, 3.38608E-07, 29021.170000000002
DataValue, -0.78, 3.38636E-07, 28537.65
DataValue, -0.8, 3.079E-07, 27914.86
DataValue, -0.82000000000000006, 3.55188E-07, 27393.09
DataValue, -0.84, 4.16872E-07, 26915.88
DataValue, -0.86, 3.56421E-07, 26510.47
DataValue, -0.88, 3.86047E-07, 26129.22
DataValue, -0.9, 3.7445399999999997E-07, 25857.760000000002
DataValue, -0.92, 3.76977E-07, 25492.46
DataValue, -0.94000000000000006, 3.63857E-07, 25132.74
DataValue, -0.96, 4.77463E-07, 24996.27
DataValue, -0.98, 3.84643E-07, 24654.08
DataValue, -1, 4.03535E-07, 24174.19
DataValue, -1, 6.31102E-09, 23712.95
DataValue, -0.98, 6.04385E-09, 23929.68
DataValue, -0.96, 5.87256E-09, 24103
DataValue, -0.94000000000000006, 5.60075E-09, 24403.100000000002
DataValue, -0.92, 5.43744E-09, 24640.11
DataValue, -0.9, 5.38464E-09, 25070.670000000002
DataValue, -0.88, 5.1786E-09, 25347.170000000002
DataValue, -0.86, 4.94552E-09, 25846.07
DataValue, -0.84, 4.77917E-09, 26280.62
DataValue, -0.82000000000000006, 4.6039E-09, 26516.55
DataValue, -0.8, 4.42279E-09, 26984.58
DataValue, -0.78, 4.19345E-09, 27760.09
DataValue, -0.76, 4.00719E-09, 28203.66
DataValue, -0.74, 3.75579E-09, 28830.21
DataValue, -0.72, 3.65013E-09, 29156.100000000002
DataValue, -0.70000000000000007, 3.52475E-09, 29727.74
DataValue, -0.68, 3.41599E-09, 30054.56
DataValue, -0.66, 3.24993E-09, 30717.68
DataValue, -0.64, 3.12232E-09, 31182.27
DataValue, -0.62, 2.97167E-09, 31953.59
DataValue, -0.6, 2.82707E-09, 32524.36
DataValue, -0.58, 2.66683E-09, 33145.15
DataValue, -0.56, 2.53425E-09, 34041.61
DataValue, -0.54, 2.43599E-09, 34700.81
DataValue, -0.52, 2.3264E-09, 35192.1
DataValue, -0.5, 2.18961E-09, 36054.19
DataValue, -0.48, 2.08959E-09, 36691.76
DataValue, -0.46, 1.9828699999999998E-09, 37290.08
DataValue, -0.44, 1.88288E-09, 38127.25
DataValue, -0.42, 1.77817E-09, 38877.24
DataValue, -0.4, 1.68E-09, 39665.28
DataValue, -0.38, 1.59356E-09, 40220.69
DataValue, -0.36, 1.50042E-09, 41117.5
DataValue, -0.34, 1.40328E-09, 42075.13
DataValue, -0.32, 1.31581E-09, 42537.31
DataValue, -0.3, 1.22298E-09, 43264.11
DataValue, -0.28, 1.13595E-09, 44045.91
DataValue, -0.26, 1.04045E-09, 44882.020000000004
DataValue, -0.24, 9.40761E-10, 45988.49
DataValue, -0.22, 8.3343900000000006E-10, 47236.64
DataValue, -0.2, 7.266050000000001E-10, 48777.56
DataValue, -0.18, 6.2067900000000006E-10, 50131.91
DataValue, -0.16, 5.19811E-10, 51400.770000000004
DataValue, -0.14, 4.2852200000000005E-10, 51972.39
DataValue, -0.12, 3.54313E-10, 51008.07
DataValue, -0.1, 3.0004600000000003E-10, 48036.3
DataValue, -0.08, 2.63926E-10, 43475.4
DataValue, -0.06, 2.42316E-10, 37802.35
DataValue, -0.04, 2.3044100000000002E-10, 32803.14
DataValue, -0.02, 2.24838E-10, 28607.53
DataValue, 0, 2.21798E-10, 25937.12
DataValue, 0.02, 2.2056400000000002E-10, 24262.18
DataValue, 0.04, 2.1998800000000002E-10, 23303.55
DataValue, 0.06, 2.19764E-10, 22647.32
DataValue, 0.08, 2.19701E-10, 22415.83
DataValue, 0.1, 2.1938300000000002E-10, 22514.07
DataValue, 0.12, 2.1917300000000003E-10, 22793.16
DataValue, 0.14, 2.1952200000000003E-10, 22524.57
DataValue, 0.16, 2.1947900000000002E-10, 22566.11
DataValue, 0.18, 2.19526E-10, 22751.96
DataValue, 0.2, 2.1960300000000002E-10, 22868.93
DataValue, 0.22, 2.1951000000000003E-10, 23131.86
DataValue, 0.24, 2.1952200000000003E-10, 23345.55
DataValue, 0.26, 2.1943800000000003E-10, 23649.100000000002
DataValue, 0.28, 2.1981700000000002E-10, 23509.43
DataValue, 0.3, 2.1972100000000003E-10, 23812.04
DataValue, 0.32, 2.2002800000000002E-10, 23851.49
DataValue, 0.34, 2.2009500000000003E-10, 23938.25
DataValue, 0.36, 2.20219E-10, 24162.33
DataValue, 0.38, 2.2011200000000002E-10, 24525.03
DataValue, 0.4, 2.2032400000000003E-10, 24775.07
DataValue, 0.42, 2.2030600000000003E-10, 25108.34
DataValue, 0.44, 2.2072100000000002E-10, 25053.36
DataValue, 0.46, 2.2092000000000002E-10, 25167.96
DataValue, 0.48, 2.2088300000000002E-10, 25670.97
DataValue, 0.5, 2.2141000000000001E-10, 25533.8
DataValue, 0.52, 2.2169200000000003E-10, 25693.05
DataValue, 0.54, 2.21798E-10, 26042.5
DataValue, 0.56, 2.21858E-10, 26476.04
DataValue, 0.58, 2.22148E-10, 26663.79
DataValue, 0.6, 2.22307E-10, 26913.03
DataValue, 0.62, 2.2279300000000001E-10, 26979.33
DataValue, 0.64, 2.2314600000000002E-10, 27365.83
DataValue, 0.66, 2.2322100000000001E-10, 27795.25
DataValue, 0.68, 2.2384900000000003E-10, 27673.690000000002
DataValue, 0.70000000000000007, 2.2393000000000002E-10, 28282.84
DataValue, 0.72, 2.2404200000000003E-10, 29002.04
DataValue, 0.74, 2.2476500000000003E-10, 28758.73
DataValue, 0.76, 2.24968E-10, 29398.9
DataValue, 0.78, 2.25571E-10, 29503.86
DataValue, 0.8, 2.2631400000000003E-10, 29645.59
DataValue, 0.82000000000000006, 2.2656600000000002E-10, 29873.12
DataValue, 0.84, 2.2701300000000003E-10, 30326.9
DataValue, 0.86, 2.2745200000000002E-10, 30856.23
DataValue, 0.88, 2.28316E-10, 30960.9
DataValue, 0.9, 2.2876700000000003E-10, 31549.84
DataValue, 0.92, 2.29307E-10, 31892.940000000002
DataValue, 0.94000000000000006, 2.3012300000000003E-10, 32053.63
