
SetupTitle, C-V Sweep
PrimitiveTest, C-V Sweep
TestParameter, Channel.UnitTyp, CMU
TestParameter, Channel.Unit, CMU1:MF/SC
TestParameter, Channel.IName, 
TestParameter, Channel.VName, VBias
TestParameter, Channel.Mode, 
TestParameter, Channel.Func, VAR1
TestParameter, Channel.Index, 
TestParameter, Channel.Time, 
TestParameter, Measurement.Primary.Locus, Double
TestParameter, Measurement.Primary.Scale, LINEAR
TestParameter, Measurement.Primary.Start, -1
TestParameter, Measurement.Primary.Stop, 1
TestParameter, Measurement.Primary.Step, 0.02
TestParameter, Measurement.Aborting.Condition, CONTINUE AT ANY
TestParameter, Measurement.PostOutput.Value, START
TestParameter, Measurement.PostOutput.Retention, OFF
TestParameter, Measurement.Secondary.ACLevel, 0.05
TestParameter, Measurement.Secondary.FName, Freq
TestParameter, Measurement.Secondary.Frequency, 1000, 10000, 100000, 1000000
TestParameter, Measurement.Bias.Source, 0
TestParameter, Measurement.ImpedanceMode.Model, Cs-Rs
TestParameter, Measurement.ImpedanceMode.CName, C
TestParameter, Measurement.ImpedanceMode.LName, L
TestParameter, Measurement.ImpedanceMode.GName, G
TestParameter, Measurement.ImpedanceMode.RName, R
TestParameter, Measurement.ImpedanceMode.QName, Q
TestParameter, Measurement.ImpedanceMode.DName, D
TestParameter, Measurement.ImpedanceMode.YName, Y
TestParameter, Measurement.ImpedanceMode.ZName, Z
TestParameter, Measurement.ImpedanceMode.ThName, Theta
TestParameter, Measurement.ImpedanceMode.BName, B
TestParameter, Measurement.ImpedanceMode.XName, X
TestParameter, Measurement.Monitor.Unit, CMU1:MF/SC
TestParameter, Measurement.Monitor.RangingMode, AUTO
TestParameter, Measurement.Monitor.RangeBoundary, 50
TestParameter, Measurement.Monitor.AcMonitorSymbol, 
TestParameter, Measurement.Monitor.DcMonitorSymbol, 
TestParameter, Measurement.Timing.Hold, 0
TestParameter, Measurement.Timing.Delay, 0
TestParameter, Measurement.Adc.UnitType, Cmu, Smu
TestParameter, Measurement.Adc.HighResolution.Mode, AUTO, AUTO
TestParameter, Measurement.Adc.HighResolution.Coeff, 2, 6
TestParameter, Measurement.WaitTime.Source.Coeff, 1
TestParameter, Measurement.WaitTime.Source.Offset, 0
TestParameter, Measurement.WaitTime.Monitor.Coeff, 1
TestParameter, Measurement.WaitTime.Monitor.Offset, 0
TestParameter, Output.Graph.Enabled, true
TestParameter, Output.Graph.AutoScaling, false
TestParameter, Output.Graph.XAxis.Data, VBias
TestParameter, Output.Graph.XAxis.Scale, Linear
TestParameter, Output.Graph.XAxis.Left, -0.1
TestParameter, Output.Graph.XAxis.Right, 0.1
TestParameter, Output.Graph.XAxis.RunTimeAutoScale, true
TestParameter, Output.Graph.YAxis.Data, C, R
TestParameter, Output.Graph.YAxis.Scale, Linear, Linear
TestParameter, Output.Graph.YAxis.Bottom, 0, 0
TestParameter, Output.Graph.YAxis.Top, 1E-10, 10000
TestParameter, Output.Graph.YAxis.Group, , 
TestParameter, Output.Graph.YAxis.RunTimeAutoScale, true, true
TestParameter, AutoAnalysis.Interpolation, false
TestParameter, AutoAnalysis.Line1.Enabled, false
TestParameter, AutoAnalysis.Line1.Type, 1
TestParameter, AutoAnalysis.Line1.Fix, True
TestParameter, AutoAnalysis.Line1.YAxis, 0
TestParameter, AutoAnalysis.Line1.Point1.Type, 0
TestParameter, AutoAnalysis.Line1.Point1.XY.X, 
TestParameter, AutoAnalysis.Line1.Point1.XY.Y, 
TestParameter, AutoAnalysis.Line1.Point1.Data.Var, 
TestParameter, AutoAnalysis.Line1.Point1.Data.Condition, 
TestParameter, AutoAnalysis.Line1.Point1.Data.Start, false
TestParameter, AutoAnalysis.Line1.Point1.Data.StartVar, 
TestParameter, AutoAnalysis.Line1.Point1.Data.StartCondition, 
TestParameter, AutoAnalysis.Line1.Point2.Type, 0
TestParameter, AutoAnalysis.Line1.Point2.XY.X, 
TestParameter, AutoAnalysis.Line1.Point2.XY.Y, 
TestParameter, AutoAnalysis.Line1.Point2.Data.Var, 
TestParameter, AutoAnalysis.Line1.Point2.Data.Condition, 
TestParameter, AutoAnalysis.Line1.Point2.Data.Start, false
TestParameter, AutoAnalysis.Line1.Point2.Data.StartVar, 
TestParameter, AutoAnalysis.Line1.Point2.Data.StartCondition, 
TestParameter, AutoAnalysis.Line1.GradientExpr, 0
TestParameter, AutoAnalysis.Line2.Enabled, false
TestParameter, AutoAnalysis.Line2.Type, 1
TestParameter, AutoAnalysis.Line2.Fix, True
TestParameter, AutoAnalysis.Line2.YAxis, 0
TestParameter, AutoAnalysis.Line2.Point1.Type, 0
TestParameter, AutoAnalysis.Line2.Point1.XY.X, 
TestParameter, AutoAnalysis.Line2.Point1.XY.Y, 
TestParameter, AutoAnalysis.Line2.Point1.Data.Var, 
TestParameter, AutoAnalysis.Line2.Point1.Data.Condition, 
TestParameter, AutoAnalysis.Line2.Point1.Data.Start, false
TestParameter, AutoAnalysis.Line2.Point1.Data.StartVar, 
TestParameter, AutoAnalysis.Line2.Point1.Data.StartCondition, 
TestParameter, AutoAnalysis.Line2.Point2.Type, 0
TestParameter, AutoAnalysis.Line2.Point2.XY.X, 
TestParameter, AutoAnalysis.Line2.Point2.XY.Y, 
TestParameter, AutoAnalysis.Line2.Point2.Data.Var, 
TestParameter, AutoAnalysis.Line2.Point2.Data.Condition, 
TestParameter, AutoAnalysis.Line2.Point2.Data.Start, false
TestParameter, AutoAnalysis.Line2.Point2.Data.StartVar, 
TestParameter, AutoAnalysis.Line2.Point2.Data.StartCondition, 
TestParameter, AutoAnalysis.Line2.GradientExpr, 0
TestParameter, AutoAnalysis.Marker.Enabled, false
TestParameter, AutoAnalysis.Marker.Data.Var, 
TestParameter, AutoAnalysis.Marker.Data.Condition, 
TestParameter, AutoAnalysis.Marker.Data.Start, false
TestParameter, AutoAnalysis.Marker.Data.StartVar, 
TestParameter, AutoAnalysis.Marker.Data.StartCondition, 
MetaData, TestRecord.EntryPoint, true
MetaData, TestRecord.RecordTime, 11/15/2019 05:45:58
MetaData, TestRecord.TestTarget, Al_1.5_1.0
MetaData, TestRecord.IterationIndex, 3
MetaData, TestRecord.Preservation, true
MetaData, TestRecord.Flag, 
MetaData, TestRecord.Remarks, 
MetaData, TestRecord.LinkKey, 751a3e9f-aae0-4af0-a639-d4de553c5cea
Dimension1, 202, 202, 202
Dimension2, 4, 4, 4
DataName, VBias, C, R
DataValue, -1, 2.11212E-10, 66656.430000000008
DataValue, -0.98, 2.1106400000000003E-10, 66342.8
DataValue, -0.96, 2.10899E-10, 66216.82
DataValue, -0.94000000000000006, 2.10782E-10, 66220.49
DataValue, -0.92, 2.10709E-10, 65809.66
DataValue, -0.9, 2.1058800000000003E-10, 65563.47
DataValue, -0.88, 2.1051400000000001E-10, 65678.25
DataValue, -0.86, 2.1037000000000002E-10, 65521.43
DataValue, -0.84, 2.10306E-10, 65289.92
DataValue, -0.82000000000000006, 2.10203E-10, 65494.94
DataValue, -0.8, 2.10176E-10, 65576.540000000008
DataValue, -0.78, 2.1010600000000003E-10, 65650.31
DataValue, -0.76, 2.1002300000000002E-10, 65287.49
DataValue, -0.74, 2.0994600000000003E-10, 65413.840000000004
DataValue, -0.72, 2.0992200000000003E-10, 65423.310000000005
DataValue, -0.70000000000000007, 2.0981800000000001E-10, 65073.33
DataValue, -0.68, 2.09769E-10, 65456.28
DataValue, -0.66, 2.0972600000000003E-10, 65204.33
DataValue, -0.64, 2.0963200000000002E-10, 65038.78
DataValue, -0.62, 2.0961700000000002E-10, 65018.73
DataValue, -0.6, 2.0960500000000002E-10, 64821.65
DataValue, -0.58, 2.0949100000000003E-10, 64788.33
DataValue, -0.56, 2.0946300000000002E-10, 64900.32
DataValue, -0.54, 2.0944000000000003E-10, 64844.68
DataValue, -0.52, 2.0943700000000003E-10, 64791.79
DataValue, -0.5, 2.09362E-10, 64458.69
DataValue, -0.48, 2.0939000000000001E-10, 64654.11
DataValue, -0.46, 2.0930700000000003E-10, 64634.98
DataValue, -0.44, 2.0928200000000002E-10, 64724.68
DataValue, -0.42, 2.0928800000000002E-10, 64390.9
DataValue, -0.4, 2.0923200000000003E-10, 64659.54
DataValue, -0.38, 2.0924600000000002E-10, 64476.93
DataValue, -0.36, 2.0927100000000003E-10, 64475.61
DataValue, -0.34, 2.0927400000000003E-10, 64448.590000000004
DataValue, -0.32, 2.0927000000000002E-10, 64463.47
DataValue, -0.3, 2.0922200000000002E-10, 64491.39
DataValue, -0.28, 2.0926E-10, 64444.060000000005
DataValue, -0.26, 2.0922500000000002E-10, 64481.53
DataValue, -0.24, 2.09218E-10, 64331.25
DataValue, -0.22, 2.0923200000000003E-10, 64291.520000000004
DataValue, -0.2, 2.09251E-10, 64570.85
DataValue, -0.18, 2.09221E-10, 64025.630000000005
DataValue, -0.16, 2.09227E-10, 64280.51
DataValue, -0.14, 2.0923E-10, 64344.03
DataValue, -0.12, 2.0927300000000002E-10, 64360.54
DataValue, -0.1, 2.0926200000000003E-10, 64437.51
DataValue, -0.08, 2.0933000000000002E-10, 64372.98
DataValue, -0.06, 2.0932700000000002E-10, 64341.4
DataValue, -0.04, 2.0936000000000001E-10, 64357.130000000005
DataValue, -0.02, 2.0939000000000001E-10, 64466.840000000004
DataValue, 0, 2.09417E-10, 64295.37
DataValue, 0.02, 2.0942E-10, 64385.01
DataValue, 0.04, 2.09474E-10, 64512.840000000004
DataValue, 0.06, 2.09477E-10, 64568.340000000004
DataValue, 0.08, 2.0955000000000002E-10, 64364.130000000005
DataValue, 0.1, 2.0954200000000003E-10, 64378.73
DataValue, 0.12, 2.0961100000000002E-10, 64378.200000000004
DataValue, 0.14, 2.0968300000000002E-10, 64207.16
DataValue, 0.16, 2.0972500000000002E-10, 64399.43
DataValue, 0.18, 2.0974000000000002E-10, 64469.810000000005
DataValue, 0.2, 2.09775E-10, 64239.450000000004
DataValue, 0.22, 2.0988500000000002E-10, 64147.76
DataValue, 0.24, 2.09893E-10, 64207.37
DataValue, 0.26, 2.09962E-10, 64295.43
DataValue, 0.28, 2.10031E-10, 64139.810000000005
DataValue, 0.3, 2.10097E-10, 64158.340000000004
DataValue, 0.32, 2.1020700000000002E-10, 63931.86
DataValue, 0.34, 2.1022300000000003E-10, 64063.03
DataValue, 0.36, 2.10311E-10, 64199.35
DataValue, 0.38, 2.1041000000000003E-10, 64082.15
DataValue, 0.4, 2.1049000000000001E-10, 63887.48
DataValue, 0.42, 2.1056300000000002E-10, 64194.32
DataValue, 0.44, 2.10676E-10, 64089.67
DataValue, 0.46, 2.1074100000000002E-10, 64045.82
DataValue, 0.48, 2.1090100000000003E-10, 64153.18
DataValue, 0.5, 2.10977E-10, 64090.590000000004
DataValue, 0.52, 2.11062E-10, 63996.9
DataValue, 0.54, 2.1117400000000001E-10, 64122.66
DataValue, 0.56, 2.1125600000000002E-10, 63892.07
DataValue, 0.58, 2.1136500000000002E-10, 63934.060000000005
DataValue, 0.6, 2.1149500000000003E-10, 63918.97
DataValue, 0.62, 2.1158400000000002E-10, 64008.66
DataValue, 0.64, 2.1167200000000002E-10, 63951.89
DataValue, 0.66, 2.11788E-10, 64003.22
DataValue, 0.68, 2.11939E-10, 64095.67
DataValue, 0.70000000000000007, 2.1203400000000003E-10, 64069.43
DataValue, 0.72, 2.1217500000000002E-10, 64121.98
DataValue, 0.74, 2.1226900000000003E-10, 64163.73
DataValue, 0.76, 2.12355E-10, 64412.950000000004
DataValue, 0.78, 2.1247900000000002E-10, 64279.46
DataValue, 0.8, 2.1261000000000003E-10, 63914.840000000004
DataValue, 0.82000000000000006, 2.1272300000000002E-10, 63850.49
DataValue, 0.84, 2.1286500000000002E-10, 63780.35
DataValue, 0.86, 2.1299E-10, 63717.44
DataValue, 0.88, 2.13072E-10, 63692.22
DataValue, 0.9, 2.13204E-10, 63710.36
DataValue, 0.92, 2.13307E-10, 63964.46
DataValue, 0.94000000000000006, 2.1338700000000003E-10, 63863.520000000004
DataValue, 0.96, 2.13596E-10, 63471.76
DataValue, 0.98, 2.1371200000000002E-10, 63603.51
DataValue, 1, 2.1384E-10, 63544.99
DataValue, 1, 2.13768E-10, 63482.71
DataValue, 0.98, 2.1354700000000003E-10, 63223.8
DataValue, 0.96, 2.1342300000000002E-10, 63504.66
DataValue, 0.94000000000000006, 2.13171E-10, 63751.770000000004
DataValue, 0.92, 2.13063E-10, 63618.72
DataValue, 0.9, 2.1291600000000002E-10, 63745.68
DataValue, 0.88, 2.12761E-10, 63644.35
DataValue, 0.86, 2.1263900000000002E-10, 63590.55
DataValue, 0.84, 2.1243100000000002E-10, 63803.8
DataValue, 0.82000000000000006, 2.1233E-10, 63796.15
DataValue, 0.8, 2.1222100000000003E-10, 63622.04
DataValue, 0.78, 2.1213000000000002E-10, 63558.310000000005
DataValue, 0.76, 2.11939E-10, 63815.41
DataValue, 0.74, 2.1184900000000002E-10, 63631.5
DataValue, 0.72, 2.1171100000000002E-10, 63491.14
DataValue, 0.70000000000000007, 2.1158800000000003E-10, 63956.24
DataValue, 0.68, 2.1149200000000003E-10, 63605.28
DataValue, 0.66, 2.11363E-10, 63632.24
DataValue, 0.64, 2.1126200000000002E-10, 63938.79
DataValue, 0.62, 2.1115600000000002E-10, 63865.17
DataValue, 0.6, 2.1105500000000003E-10, 63654.87
DataValue, 0.58, 2.10932E-10, 63873.840000000004
DataValue, 0.56, 2.1086E-10, 63899.78
DataValue, 0.54, 2.1075800000000001E-10, 63540.89
DataValue, 0.52, 2.10673E-10, 63682.35
DataValue, 0.5, 2.1059000000000002E-10, 63668.86
DataValue, 0.48, 2.1055500000000003E-10, 63553.83
DataValue, 0.46, 2.1043300000000002E-10, 63634.99
DataValue, 0.44, 2.10318E-10, 63506.05
DataValue, 0.42, 2.1024300000000002E-10, 63628.67
DataValue, 0.4, 2.1020800000000003E-10, 63692.71
DataValue, 0.38, 2.1012600000000002E-10, 64092.020000000004
DataValue, 0.36, 2.1007500000000002E-10, 63719.49
DataValue, 0.34, 2.0997300000000003E-10, 63559.54
DataValue, 0.32, 2.0992100000000002E-10, 63671.43
DataValue, 0.3, 2.0983400000000002E-10, 63786.22
DataValue, 0.28, 2.0981800000000001E-10, 63722.64
DataValue, 0.26, 2.0977100000000003E-10, 63650.26
DataValue, 0.24, 2.0975600000000003E-10, 63643.450000000004
DataValue, 0.22, 2.0965600000000002E-10, 63615.99
DataValue, 0.2, 2.09649E-10, 63808.310000000005
DataValue, 0.18, 2.0961700000000002E-10, 63704.99
DataValue, 0.16, 2.0958900000000001E-10, 63607.67
DataValue, 0.14, 2.0949400000000003E-10, 63561.270000000004
DataValue, 0.12, 2.0949100000000003E-10, 63701.08
DataValue, 0.1, 2.0948200000000003E-10, 63642.770000000004
DataValue, 0.08, 2.0947900000000003E-10, 63706.66
DataValue, 0.06, 2.0942800000000003E-10, 64167.62
DataValue, 0.04, 2.0943900000000002E-10, 63927.15
DataValue, 0.02, 2.09441E-10, 63932.4
DataValue, 0, 2.09404E-10, 64030.1
DataValue, -0.02, 2.0931900000000002E-10, 64404.090000000004
DataValue, -0.04, 2.0933900000000002E-10, 64334.25
DataValue, -0.06, 2.09338E-10, 64247.060000000005
DataValue, -0.08, 2.0932800000000002E-10, 64234.950000000004
DataValue, -0.1, 2.09317E-10, 64240.92
DataValue, -0.12, 2.0931900000000002E-10, 64456.17
DataValue, -0.14, 2.0928300000000003E-10, 64624.14
DataValue, -0.16, 2.0931000000000003E-10, 64757.08
DataValue, -0.18, 2.09314E-10, 64617.82
DataValue, -0.2, 2.0928200000000002E-10, 64679.12
DataValue, -0.22, 2.09302E-10, 64735.8
DataValue, -0.24, 2.0931200000000002E-10, 64640.61
DataValue, -0.26, 2.0929E-10, 64448.01
DataValue, -0.28, 2.0932500000000002E-10, 64513.48
DataValue, -0.3, 2.0931300000000003E-10, 64416.51
DataValue, -0.32, 2.09344E-10, 64581.590000000004
DataValue, -0.34, 2.09392E-10, 64706.36
DataValue, -0.36, 2.0938400000000001E-10, 64689.53
DataValue, -0.38, 2.09401E-10, 64386.86
DataValue, -0.4, 2.09392E-10, 64599.23
DataValue, -0.42, 2.0941500000000002E-10, 64522.57
DataValue, -0.44, 2.0944200000000002E-10, 64659.01
DataValue, -0.46, 2.0946600000000002E-10, 64635.64
DataValue, -0.48, 2.0947600000000003E-10, 64558.49
DataValue, -0.5, 2.0952700000000003E-10, 64505.880000000005
DataValue, -0.52, 2.09579E-10, 64607.57
DataValue, -0.54, 2.0956800000000002E-10, 64912.67
DataValue, -0.56, 2.09652E-10, 64725.840000000004
DataValue, -0.58, 2.09685E-10, 64938.82
DataValue, -0.6, 2.0970800000000003E-10, 64904.64
DataValue, -0.62, 2.0975800000000002E-10, 64980.96
DataValue, -0.64, 2.0978800000000002E-10, 65406.24
DataValue, -0.66, 2.09865E-10, 65410.810000000005
DataValue, -0.68, 2.0991600000000003E-10, 64902.18
DataValue, -0.70000000000000007, 2.09959E-10, 64928.3
DataValue, -0.72, 2.1004200000000002E-10, 65025.23
DataValue, -0.74, 2.1004400000000001E-10, 65243.6
DataValue, -0.76, 2.1013800000000002E-10, 65378.89
DataValue, -0.78, 2.1019300000000003E-10, 65354.39
DataValue, -0.8, 2.1024100000000002E-10, 65723.4
DataValue, -0.82000000000000006, 2.1032E-10, 65616.21
DataValue, -0.84, 2.1035900000000003E-10, 65797.19
DataValue, -0.86, 2.1049300000000001E-10, 65697.41
DataValue, -0.88, 2.1053300000000002E-10, 65772.35
DataValue, -0.9, 2.1059400000000003E-10, 65786.85
DataValue, -0.92, 2.1069000000000002E-10, 65834.41
DataValue, -0.94000000000000006, 2.10776E-10, 66018.19
DataValue, -0.96, 2.10842E-10, 66209.040000000008
DataValue, -0.98, 2.1094300000000002E-10, 66218.72
DataValue, -1, 2.1100600000000002E-10, 66420.33
DataValue, -1, 1.6558400000000002E-10, 53296.55
DataValue, -0.98, 1.6533100000000002E-10, 53244.26
DataValue, -0.96, 1.65333E-10, 52898.14
DataValue, -0.94000000000000006, 1.65404E-10, 52713.05
DataValue, -0.92, 1.6485500000000002E-10, 52758.41
DataValue, -0.9, 1.6506200000000001E-10, 52434.92
DataValue, -0.88, 1.65164E-10, 52295.47
DataValue, -0.86, 1.6503600000000002E-10, 52198.23
DataValue, -0.84, 1.6494E-10, 52081.520000000004
DataValue, -0.82000000000000006, 1.6468300000000002E-10, 52140.380000000005
DataValue, -0.8, 1.646E-10, 52073.07
DataValue, -0.78, 1.64552E-10, 51963.42
DataValue, -0.76, 1.6461600000000001E-10, 51768.32
DataValue, -0.74, 1.64232E-10, 51875.36
DataValue, -0.72, 1.6443300000000002E-10, 51701.55
DataValue, -0.70000000000000007, 1.6422200000000002E-10, 51744.54
DataValue, -0.68, 1.6438500000000002E-10, 51585.9
DataValue, -0.66, 1.6437300000000002E-10, 51517.75
DataValue, -0.64, 1.64482E-10, 51417.22
DataValue, -0.62, 1.6434500000000002E-10, 51371.590000000004
DataValue, -0.6, 1.64245E-10, 51445.31
DataValue, -0.58, 1.6405900000000002E-10, 51414.51
DataValue, -0.56, 1.64293E-10, 51312.76
DataValue, -0.54, 1.6426400000000002E-10, 51290
DataValue, -0.52, 1.63997E-10, 51361.270000000004
DataValue, -0.5, 1.64323E-10, 51146.74
DataValue, -0.48, 1.6376700000000002E-10, 51366.1
DataValue, -0.46, 1.6377000000000002E-10, 51322.590000000004
DataValue, -0.44, 1.6379E-10, 51350.16
DataValue, -0.42, 1.63639E-10, 51409.21
DataValue, -0.4, 1.63976E-10, 51195.11
DataValue, -0.38, 1.63974E-10, 51107.19
DataValue, -0.36, 1.63955E-10, 51149.17
DataValue, -0.34, 1.63883E-10, 51192.79
DataValue, -0.32, 1.63591E-10, 51287.19
DataValue, -0.3, 1.63754E-10, 51196.770000000004
DataValue, -0.28, 1.6356500000000002E-10, 51337.39
DataValue, -0.26, 1.63735E-10, 51186.700000000004
DataValue, -0.24, 1.6359500000000002E-10, 51266.35
DataValue, -0.22, 1.63904E-10, 51085.94
DataValue, -0.2, 1.6389300000000002E-10, 51109.72
DataValue, -0.18, 1.6391400000000001E-10, 51026.89
DataValue, -0.16, 1.6370000000000001E-10, 51110.1
DataValue, -0.14, 1.63968E-10, 51059.56
DataValue, -0.12, 1.63579E-10, 51240.73
DataValue, -0.1, 1.6369E-10, 51212.06
DataValue, -0.08, 1.63904E-10, 51070.44
DataValue, -0.06, 1.63808E-10, 51062.72
DataValue, -0.04, 1.6369800000000002E-10, 51145.69
DataValue, -0.02, 1.63543E-10, 51297.12
DataValue, 0, 1.63608E-10, 51254.46
DataValue, 0.02, 1.6372200000000002E-10, 51136.17
DataValue, 0.04, 1.63726E-10, 51171.36
DataValue, 0.06, 1.6377900000000002E-10, 51108.26
DataValue, 0.08, 1.6382700000000002E-10, 51180.75
DataValue, 0.1, 1.6401E-10, 51005.32
DataValue, 0.12, 1.6391800000000002E-10, 51103.68
DataValue, 0.14, 1.63901E-10, 51096.37
DataValue, 0.16, 1.6403200000000002E-10, 51003.48
DataValue, 0.18, 1.6398100000000002E-10, 51040.05
DataValue, 0.2, 1.6432700000000002E-10, 50934.44
DataValue, 0.22, 1.64435E-10, 50806.41
DataValue, 0.24, 1.6444800000000002E-10, 50796.01
DataValue, 0.26, 1.6448E-10, 50793.92
DataValue, 0.28, 1.6432400000000002E-10, 50919.270000000004
DataValue, 0.3, 1.6459300000000002E-10, 50805.79
DataValue, 0.32, 1.64657E-10, 50841.74
DataValue, 0.34, 1.6461000000000001E-10, 50833.78
DataValue, 0.36, 1.64908E-10, 50631.73
DataValue, 0.38, 1.6481900000000002E-10, 50746.450000000004
DataValue, 0.4, 1.64648E-10, 50822.67
DataValue, 0.42, 1.6471000000000002E-10, 50824.590000000004
DataValue, 0.44, 1.64898E-10, 50834.78
DataValue, 0.46, 1.6484200000000001E-10, 50778.58
DataValue, 0.48, 1.65386E-10, 50535.48
DataValue, 0.5, 1.6500800000000002E-10, 50676.96
DataValue, 0.52, 1.65326E-10, 50635.22
DataValue, 0.54, 1.65336E-10, 50601.17
DataValue, 0.56, 1.6503800000000002E-10, 50731.700000000004
DataValue, 0.58, 1.65118E-10, 50784.68
DataValue, 0.6, 1.65375E-10, 50692.56
