
SetupTitle, C-V Sweep
PrimitiveTest, C-V Sweep
TestParameter, Channel.UnitTyp, CMU
TestParameter, Channel.Unit, CMU1:MF/SC
TestParameter, Channel.IName, 
TestParameter, Channel.VName, VBias
TestParameter, Channel.Mode, 
TestParameter, Channel.Func, VAR1
TestParameter, Channel.Index, 
TestParameter, Channel.Time, 
TestParameter, Measurement.Primary.Locus, Double
TestParameter, Measurement.Primary.Scale, LINEAR
TestParameter, Measurement.Primary.Start, -1
TestParameter, Measurement.Primary.Stop, 1
TestParameter, Measurement.Primary.Step, 0.02
TestParameter, Measurement.Aborting.Condition, CONTINUE AT ANY
TestParameter, Measurement.PostOutput.Value, START
TestParameter, Measurement.PostOutput.Retention, OFF
TestParameter, Measurement.Secondary.ACLevel, 0.05
TestParameter, Measurement.Secondary.FName, Freq
TestParameter, Measurement.Secondary.Frequency, 1000, 10000, 100000, 1000000
TestParameter, Measurement.Bias.Source, 0
TestParameter, Measurement.ImpedanceMode.Model, Cs-Rs
TestParameter, Measurement.ImpedanceMode.CName, C
TestParameter, Measurement.ImpedanceMode.LName, L
TestParameter, Measurement.ImpedanceMode.GName, G
TestParameter, Measurement.ImpedanceMode.RName, R
TestParameter, Measurement.ImpedanceMode.QName, Q
TestParameter, Measurement.ImpedanceMode.DName, D
TestParameter, Measurement.ImpedanceMode.YName, Y
TestParameter, Measurement.ImpedanceMode.ZName, Z
TestParameter, Measurement.ImpedanceMode.ThName, Theta
TestParameter, Measurement.ImpedanceMode.BName, B
TestParameter, Measurement.ImpedanceMode.XName, X
TestParameter, Measurement.Monitor.Unit, CMU1:MF/SC
TestParameter, Measurement.Monitor.RangingMode, AUTO
TestParameter, Measurement.Monitor.RangeBoundary, 50
TestParameter, Measurement.Monitor.AcMonitorSymbol, 
TestParameter, Measurement.Monitor.DcMonitorSymbol, 
TestParameter, Measurement.Timing.Hold, 0
TestParameter, Measurement.Timing.Delay, 0
TestParameter, Measurement.Adc.UnitType, Cmu, Smu
TestParameter, Measurement.Adc.HighResolution.Mode, AUTO, AUTO
TestParameter, Measurement.Adc.HighResolution.Coeff, 2, 6
TestParameter, Measurement.WaitTime.Source.Coeff, 1
TestParameter, Measurement.WaitTime.Source.Offset, 0
TestParameter, Measurement.WaitTime.Monitor.Coeff, 1
TestParameter, Measurement.WaitTime.Monitor.Offset, 0
TestParameter, Output.Graph.Enabled, true
TestParameter, Output.Graph.AutoScaling, false
TestParameter, Output.Graph.XAxis.Data, VBias
TestParameter, Output.Graph.XAxis.Scale, Linear
TestParameter, Output.Graph.XAxis.Left, -0.1
TestParameter, Output.Graph.XAxis.Right, 0.1
TestParameter, Output.Graph.XAxis.RunTimeAutoScale, true
TestParameter, Output.Graph.YAxis.Data, C, R
TestParameter, Output.Graph.YAxis.Scale, Linear, Linear
TestParameter, Output.Graph.YAxis.Bottom, 0, 0
TestParameter, Output.Graph.YAxis.Top, 1E-10, 10000
TestParameter, Output.Graph.YAxis.Group, , 
TestParameter, Output.Graph.YAxis.RunTimeAutoScale, true, true
TestParameter, AutoAnalysis.Interpolation, false
TestParameter, AutoAnalysis.Line1.Enabled, false
TestParameter, AutoAnalysis.Line1.Type, 1
TestParameter, AutoAnalysis.Line1.Fix, True
TestParameter, AutoAnalysis.Line1.YAxis, 0
TestParameter, AutoAnalysis.Line1.Point1.Type, 0
TestParameter, AutoAnalysis.Line1.Point1.XY.X, 
TestParameter, AutoAnalysis.Line1.Point1.XY.Y, 
TestParameter, AutoAnalysis.Line1.Point1.Data.Var, 
TestParameter, AutoAnalysis.Line1.Point1.Data.Condition, 
TestParameter, AutoAnalysis.Line1.Point1.Data.Start, false
TestParameter, AutoAnalysis.Line1.Point1.Data.StartVar, 
TestParameter, AutoAnalysis.Line1.Point1.Data.StartCondition, 
TestParameter, AutoAnalysis.Line1.Point2.Type, 0
TestParameter, AutoAnalysis.Line1.Point2.XY.X, 
TestParameter, AutoAnalysis.Line1.Point2.XY.Y, 
TestParameter, AutoAnalysis.Line1.Point2.Data.Var, 
TestParameter, AutoAnalysis.Line1.Point2.Data.Condition, 
TestParameter, AutoAnalysis.Line1.Point2.Data.Start, false
TestParameter, AutoAnalysis.Line1.Point2.Data.StartVar, 
TestParameter, AutoAnalysis.Line1.Point2.Data.StartCondition, 
TestParameter, AutoAnalysis.Line1.GradientExpr, 0
TestParameter, AutoAnalysis.Line2.Enabled, false
TestParameter, AutoAnalysis.Line2.Type, 1
TestParameter, AutoAnalysis.Line2.Fix, True
TestParameter, AutoAnalysis.Line2.YAxis, 0
TestParameter, AutoAnalysis.Line2.Point1.Type, 0
TestParameter, AutoAnalysis.Line2.Point1.XY.X, 
TestParameter, AutoAnalysis.Line2.Point1.XY.Y, 
TestParameter, AutoAnalysis.Line2.Point1.Data.Var, 
TestParameter, AutoAnalysis.Line2.Point1.Data.Condition, 
TestParameter, AutoAnalysis.Line2.Point1.Data.Start, false
TestParameter, AutoAnalysis.Line2.Point1.Data.StartVar, 
TestParameter, AutoAnalysis.Line2.Point1.Data.StartCondition, 
TestParameter, AutoAnalysis.Line2.Point2.Type, 0
TestParameter, AutoAnalysis.Line2.Point2.XY.X, 
TestParameter, AutoAnalysis.Line2.Point2.XY.Y, 
TestParameter, AutoAnalysis.Line2.Point2.Data.Var, 
TestParameter, AutoAnalysis.Line2.Point2.Data.Condition, 
TestParameter, AutoAnalysis.Line2.Point2.Data.Start, false
TestParameter, AutoAnalysis.Line2.Point2.Data.StartVar, 
TestParameter, AutoAnalysis.Line2.Point2.Data.StartCondition, 
TestParameter, AutoAnalysis.Line2.GradientExpr, 0
TestParameter, AutoAnalysis.Marker.Enabled, false
TestParameter, AutoAnalysis.Marker.Data.Var, 
TestParameter, AutoAnalysis.Marker.Data.Condition, 
TestParameter, AutoAnalysis.Marker.Data.Start, false
TestParameter, AutoAnalysis.Marker.Data.StartVar, 
TestParameter, AutoAnalysis.Marker.Data.StartCondition, 
MetaData, TestRecord.EntryPoint, true
MetaData, TestRecord.RecordTime, 11/25/2019 20:37:32
MetaData, TestRecord.TestTarget, Al2O3_0.5_10
MetaData, TestRecord.IterationIndex, 1
MetaData, TestRecord.Preservation, true
MetaData, TestRecord.Flag, 
MetaData, TestRecord.Remarks, 
MetaData, TestRecord.LinkKey, fc623d3a-b491-40c9-81f4-124008df4bd0
Dimension1, 202, 202, 202
Dimension2, 4, 4, 4
DataName, VBias, C, R
DataValue, -1, 1.4300800000000001E-10, 5025.862
DataValue, -0.98, 1.4296300000000002E-10, 4848.291
DataValue, -0.96, 1.42952E-10, 5055.9220000000005
DataValue, -0.94000000000000006, 1.4286E-10, 5085.669
DataValue, -0.92, 1.4283E-10, 5013.527
DataValue, -0.9, 1.4274600000000002E-10, 4968.302
DataValue, -0.88, 1.42685E-10, 4795.783
DataValue, -0.86, 1.42652E-10, 4905.626
DataValue, -0.84, 1.42636E-10, 5078.6320000000005
DataValue, -0.82000000000000006, 1.4256800000000001E-10, 4943.841
DataValue, -0.8, 1.42516E-10, 4878.109
DataValue, -0.78, 1.4248100000000002E-10, 4771.137
DataValue, -0.76, 1.42434E-10, 4943.779
DataValue, -0.74, 1.42374E-10, 4888.3330000000005
DataValue, -0.72, 1.4233600000000001E-10, 4867.157
DataValue, -0.70000000000000007, 1.42265E-10, 5009.271
DataValue, -0.68, 1.42217E-10, 5069.152
DataValue, -0.66, 1.42206E-10, 4801.901
DataValue, -0.64, 1.4215000000000002E-10, 4731.983
DataValue, -0.62, 1.4209300000000002E-10, 4753.2080000000005
DataValue, -0.6, 1.4206500000000002E-10, 4913.743
DataValue, -0.58, 1.41992E-10, 4810.679
DataValue, -0.56, 1.41959E-10, 4571.6500000000005
DataValue, -0.54, 1.41932E-10, 4859.018
DataValue, -0.52, 1.4186100000000002E-10, 4729.331
DataValue, -0.5, 1.41811E-10, 4738.937
DataValue, -0.48, 1.41757E-10, 4582.5
DataValue, -0.46, 1.41706E-10, 4572.289
DataValue, -0.44, 1.41645E-10, 4690.1320000000005
DataValue, -0.42, 1.4163E-10, 4729.024
DataValue, -0.4, 1.416E-10, 4524.676
DataValue, -0.38, 1.41531E-10, 4591.393
DataValue, -0.36, 1.41489E-10, 4623.3240000000005
DataValue, -0.34, 1.4142300000000001E-10, 4639.987
DataValue, -0.32, 1.4138100000000002E-10, 4759.1050000000005
DataValue, -0.3, 1.41353E-10, 4573.059
DataValue, -0.28, 1.4130600000000002E-10, 4826.904
DataValue, -0.26, 1.41265E-10, 4759.859
DataValue, -0.24, 1.41242E-10, 4907.264
DataValue, -0.22, 1.4116500000000002E-10, 4941.129
DataValue, -0.2, 1.4109800000000002E-10, 4780.289
DataValue, -0.18, 1.4108300000000002E-10, 4790.3910000000005
DataValue, -0.16, 1.4102000000000002E-10, 4712.167
DataValue, -0.14, 1.4100500000000002E-10, 4555.974
DataValue, -0.12, 1.40936E-10, 4598.459
DataValue, -0.1, 1.4091100000000002E-10, 4852.33
DataValue, -0.08, 1.40837E-10, 4773.204
DataValue, -0.06, 1.4079100000000002E-10, 4842.572
DataValue, -0.04, 1.40774E-10, 4714.979
DataValue, -0.02, 1.4072500000000002E-10, 4512.948
DataValue, 0, 1.40663E-10, 4711.787
DataValue, 0.02, 1.4063700000000002E-10, 4745.106
DataValue, 0.04, 1.4061000000000002E-10, 4729.589
DataValue, 0.06, 1.4053200000000002E-10, 4658.9130000000005
DataValue, 0.08, 1.4048900000000002E-10, 4640.139
DataValue, 0.1, 1.4042600000000002E-10, 4391.621
DataValue, 0.12, 1.40415E-10, 4638.874
DataValue, 0.14, 1.4037500000000002E-10, 4704.383
DataValue, 0.16, 1.40335E-10, 4526.394
DataValue, 0.18, 1.40289E-10, 4897.3330000000005
DataValue, 0.2, 1.4025100000000002E-10, 4532.064
DataValue, 0.22, 1.40183E-10, 4483.453
DataValue, 0.24, 1.4013E-10, 4628.638
DataValue, 0.26, 1.40099E-10, 4713.0250000000005
DataValue, 0.28, 1.4004700000000002E-10, 4776.033
DataValue, 0.3, 1.3998900000000002E-10, 4578.914
DataValue, 0.32, 1.3996E-10, 4686.167
DataValue, 0.34, 1.39933E-10, 4560.767
DataValue, 0.36, 1.3985000000000001E-10, 4479.687
DataValue, 0.38, 1.3984500000000002E-10, 4334.6230000000005
DataValue, 0.4, 1.39798E-10, 4636.8330000000005
DataValue, 0.42, 1.3973900000000002E-10, 4568.591
DataValue, 0.44, 1.39696E-10, 4686.161
DataValue, 0.46, 1.39678E-10, 4858.388
DataValue, 0.48, 1.3959100000000002E-10, 4769.925
DataValue, 0.5, 1.3957300000000002E-10, 4551.603
DataValue, 0.52, 1.39553E-10, 4914.145
DataValue, 0.54, 1.3948000000000002E-10, 4717.515
DataValue, 0.56, 1.3944100000000002E-10, 4833.334
DataValue, 0.58, 1.3940700000000001E-10, 4419.236
DataValue, 0.6, 1.3933500000000002E-10, 4984.847
DataValue, 0.62, 1.39279E-10, 4767.8240000000005
DataValue, 0.64, 1.39286E-10, 4782.087
DataValue, 0.66, 1.3923000000000002E-10, 4826.962
DataValue, 0.68, 1.3918200000000002E-10, 4800.691
DataValue, 0.70000000000000007, 1.3916000000000001E-10, 4493.761
DataValue, 0.72, 1.39096E-10, 4768.9580000000005
DataValue, 0.74, 1.39074E-10, 4859.206
DataValue, 0.76, 1.3901300000000002E-10, 4710.338
DataValue, 0.78, 1.3896200000000002E-10, 4882.1630000000005
DataValue, 0.8, 1.3892600000000002E-10, 4830.494
DataValue, 0.82000000000000006, 1.38876E-10, 4664.835
DataValue, 0.84, 1.38854E-10, 4649.102
DataValue, 0.86, 1.38789E-10, 4754.102
DataValue, 0.88, 1.38743E-10, 4638.029
DataValue, 0.9, 1.3871800000000002E-10, 4523.274
DataValue, 0.92, 1.38698E-10, 4954.728
DataValue, 0.94000000000000006, 1.38638E-10, 4721.782
DataValue, 0.96, 1.38593E-10, 4966.448
DataValue, 0.98, 1.38547E-10, 4724.367
DataValue, 1, 1.38505E-10, 4838.448
DataValue, 1, 1.38524E-10, 4631.755
DataValue, 0.98, 1.38557E-10, 4449.443
DataValue, 0.96, 1.3859400000000002E-10, 4904.528
DataValue, 0.94000000000000006, 1.38668E-10, 4736.474
DataValue, 0.92, 1.3868700000000001E-10, 4771.555
DataValue, 0.9, 1.3872000000000001E-10, 4854.048
DataValue, 0.88, 1.38735E-10, 4538.945
DataValue, 0.86, 1.38806E-10, 4793.697
DataValue, 0.84, 1.38828E-10, 4446.653
DataValue, 0.82000000000000006, 1.3888000000000002E-10, 4564.637
DataValue, 0.8, 1.38893E-10, 4851.526
DataValue, 0.78, 1.38993E-10, 4721.093
DataValue, 0.76, 1.3901600000000002E-10, 4666.881
DataValue, 0.74, 1.39066E-10, 4722.841
DataValue, 0.72, 1.3907600000000002E-10, 4666.747
DataValue, 0.70000000000000007, 1.3914300000000002E-10, 4523.179
DataValue, 0.68, 1.39199E-10, 4545.213
DataValue, 0.66, 1.39186E-10, 4671.03
DataValue, 0.64, 1.39268E-10, 4850.294
DataValue, 0.62, 1.3933800000000002E-10, 4752.081
DataValue, 0.6, 1.3936000000000002E-10, 4773.923
DataValue, 0.58, 1.39418E-10, 4790.392
DataValue, 0.56, 1.39412E-10, 4987.886
DataValue, 0.54, 1.3944100000000002E-10, 4786.75
DataValue, 0.52, 1.3952E-10, 4550.393
DataValue, 0.5, 1.39574E-10, 4827.173
DataValue, 0.48, 1.39641E-10, 4791.573
DataValue, 0.46, 1.39654E-10, 4755.055
DataValue, 0.44, 1.39717E-10, 4584.18
DataValue, 0.42, 1.39719E-10, 4503.853
DataValue, 0.4, 1.39755E-10, 4639.665
DataValue, 0.38, 1.3982100000000002E-10, 4722.274
DataValue, 0.36, 1.399E-10, 4626.428
DataValue, 0.34, 1.39951E-10, 4748.983
DataValue, 0.32, 1.3995300000000002E-10, 4586.911
DataValue, 0.3, 1.40006E-10, 4808.865
DataValue, 0.28, 1.4006100000000001E-10, 4725.557
DataValue, 0.26, 1.40075E-10, 4676.674
DataValue, 0.24, 1.4015E-10, 4457.901
DataValue, 0.22, 1.40192E-10, 4864.213
DataValue, 0.2, 1.4025800000000002E-10, 4453.095
DataValue, 0.18, 1.4026100000000002E-10, 4525.553
DataValue, 0.16, 1.4035400000000002E-10, 4487.357
DataValue, 0.14, 1.40377E-10, 4758.142
DataValue, 0.12, 1.4043500000000002E-10, 4626.828
DataValue, 0.1, 1.4045600000000002E-10, 4768.8460000000005
DataValue, 0.08, 1.40485E-10, 4527.424
DataValue, 0.06, 1.40555E-10, 4758.3150000000005
DataValue, 0.04, 1.40606E-10, 4583.2300000000005
DataValue, 0.02, 1.4063100000000002E-10, 4698.176
DataValue, 0, 1.40678E-10, 4704.694
DataValue, -0.02, 1.40765E-10, 4585.326
DataValue, -0.04, 1.40783E-10, 4529.796
DataValue, -0.06, 1.4082E-10, 4552.005
DataValue, -0.08, 1.40868E-10, 4513.135
DataValue, -0.1, 1.4091400000000002E-10, 4745.896
DataValue, -0.12, 1.40937E-10, 4712.908
DataValue, -0.14, 1.41007E-10, 4590.026
DataValue, -0.16, 1.4105900000000002E-10, 4638.957
DataValue, -0.18, 1.41108E-10, 4902.702
DataValue, -0.2, 1.4116400000000002E-10, 4688.118
DataValue, -0.22, 1.4119500000000002E-10, 4575.778
DataValue, -0.24, 1.41227E-10, 4638.265
DataValue, -0.26, 1.4126700000000002E-10, 4736.754
DataValue, -0.28, 1.41341E-10, 4864.095
DataValue, -0.3, 1.4137E-10, 4523.875
DataValue, -0.32, 1.41401E-10, 4656.278
DataValue, -0.34, 1.41471E-10, 4816.3640000000005
DataValue, -0.36, 1.41513E-10, 4613.423
DataValue, -0.38, 1.41573E-10, 4738.062
DataValue, -0.4, 1.41566E-10, 4772.231
DataValue, -0.42, 1.41645E-10, 4703.162
DataValue, -0.44, 1.41687E-10, 4850.319
DataValue, -0.46, 1.41709E-10, 4832.226
DataValue, -0.48, 1.41778E-10, 4644.735
DataValue, -0.5, 1.41808E-10, 4650.2880000000005
DataValue, -0.52, 1.4188200000000002E-10, 4755.904
DataValue, -0.54, 1.41935E-10, 4904.232
DataValue, -0.56, 1.41959E-10, 4701.5380000000005
DataValue, -0.58, 1.4201100000000002E-10, 4428.533
DataValue, -0.6, 1.42049E-10, 4618.716
DataValue, -0.62, 1.4211100000000002E-10, 4750.514
DataValue, -0.64, 1.42143E-10, 4649.227
DataValue, -0.66, 1.4220100000000002E-10, 4594.929
DataValue, -0.68, 1.4224600000000002E-10, 4588.261
DataValue, -0.70000000000000007, 1.4228200000000002E-10, 4897.907
DataValue, -0.72, 1.4233100000000002E-10, 4784.733
DataValue, -0.74, 1.4236000000000001E-10, 4665.302
DataValue, -0.76, 1.4240300000000002E-10, 4593.5250000000005
DataValue, -0.78, 1.42444E-10, 4698.001
DataValue, -0.8, 1.4254400000000002E-10, 5023.352
DataValue, -0.82000000000000006, 1.4256800000000001E-10, 4823.515
DataValue, -0.84, 1.42606E-10, 4784.551
DataValue, -0.86, 1.42672E-10, 4807.326
DataValue, -0.88, 1.4270700000000002E-10, 4945.546
DataValue, -0.9, 1.42715E-10, 4938.817
DataValue, -0.92, 1.4279100000000001E-10, 4925.173
DataValue, -0.94000000000000006, 1.4281900000000002E-10, 4940.011
DataValue, -0.96, 1.42889E-10, 4803.071
DataValue, -0.98, 1.4293000000000002E-10, 5202.106
DataValue, -1, 1.4296000000000002E-10, 4821.676
DataValue, -1, 1.4234300000000002E-10, 2466.242
DataValue, -0.98, 1.4230700000000002E-10, 2467.71
DataValue, -0.96, 1.4225200000000002E-10, 2473.511
DataValue, -0.94000000000000006, 1.42203E-10, 2466.338
DataValue, -0.92, 1.42173E-10, 2460.958
DataValue, -0.9, 1.42094E-10, 2474.289
DataValue, -0.88, 1.4206E-10, 2466.164
DataValue, -0.86, 1.42028E-10, 2471.462
DataValue, -0.84, 1.41964E-10, 2476.553
DataValue, -0.82000000000000006, 1.4197E-10, 2444.054
DataValue, -0.8, 1.4187900000000002E-10, 2476.619
DataValue, -0.78, 1.41837E-10, 2473.872
DataValue, -0.76, 1.41789E-10, 2483.995
DataValue, -0.74, 1.4174900000000002E-10, 2457.603
DataValue, -0.72, 1.4168600000000002E-10, 2483.822
DataValue, -0.70000000000000007, 1.4161900000000002E-10, 2503.747
DataValue, -0.68, 1.41612E-10, 2470.123
DataValue, -0.66, 1.41555E-10, 2466.525
DataValue, -0.64, 1.4152000000000002E-10, 2487.533
DataValue, -0.62, 1.41474E-10, 2460.192
DataValue, -0.6, 1.4141800000000002E-10, 2488.567
DataValue, -0.58, 1.4139300000000002E-10, 2466.132
DataValue, -0.56, 1.41335E-10, 2484.82
DataValue, -0.54, 1.41265E-10, 2483.503
DataValue, -0.52, 1.4124000000000002E-10, 2459.44
DataValue, -0.5, 1.4122400000000001E-10, 2449.259
DataValue, -0.48, 1.41141E-10, 2478.004
DataValue, -0.46, 1.41129E-10, 2445.531
DataValue, -0.44, 1.4106200000000002E-10, 2474.122
DataValue, -0.42, 1.4103200000000002E-10, 2458.609
DataValue, -0.4, 1.4095600000000002E-10, 2481.7690000000002
DataValue, -0.38, 1.40915E-10, 2459.907
DataValue, -0.36, 1.4090200000000002E-10, 2452.111
DataValue, -0.34, 1.40835E-10, 2476.732
DataValue, -0.32, 1.40789E-10, 2472.5660000000003
DataValue, -0.3, 1.4076900000000001E-10, 2475.082
DataValue, -0.28, 1.40717E-10, 2442.514
DataValue, -0.26, 1.40647E-10, 2479.347
DataValue, -0.24, 1.40618E-10, 2470.44
DataValue, -0.22, 1.4056200000000002E-10, 2469.808
DataValue, -0.2, 1.4051400000000002E-10, 2477.208
DataValue, -0.18, 1.40482E-10, 2467.146
DataValue, -0.16, 1.4043800000000002E-10, 2478.963
DataValue, -0.14, 1.40388E-10, 2478.041
DataValue, -0.12, 1.4032700000000002E-10, 2484.03
DataValue, -0.1, 1.4031200000000002E-10, 2482.447
DataValue, -0.08, 1.4028200000000002E-10, 2472.371
DataValue, -0.06, 1.4020000000000002E-10, 2495.426
DataValue, -0.04, 1.4018800000000002E-10, 2445.86
DataValue, -0.02, 1.40129E-10, 2467.607
DataValue, 0, 1.40094E-10, 2480.194
DataValue, 0.02, 1.4001600000000002E-10, 2490.4120000000003
DataValue, 0.04, 1.3997400000000002E-10, 2478.3070000000002
DataValue, 0.06, 1.3995300000000002E-10, 2466.463
DataValue, 0.08, 1.3990200000000002E-10, 2474.405
DataValue, 0.1, 1.39843E-10, 2471.123
DataValue, 0.12, 1.39816E-10, 2470.36
DataValue, 0.14, 1.39767E-10, 2471.259
DataValue, 0.16, 1.3973900000000002E-10, 2470.348
DataValue, 0.18, 1.3969100000000002E-10, 2463.8940000000002
DataValue, 0.2, 1.39641E-10, 2491.506
DataValue, 0.22, 1.3959500000000002E-10, 2481.93
DataValue, 0.24, 1.3953400000000002E-10, 2478.572
DataValue, 0.26, 1.39541E-10, 2460.722
DataValue, 0.28, 1.39439E-10, 2496.2400000000002
DataValue, 0.3, 1.3941E-10, 2474.0860000000002
DataValue, 0.32, 1.3936000000000002E-10, 2494.964
DataValue, 0.34, 1.39337E-10, 2480.719
DataValue, 0.36, 1.393E-10, 2469.812
DataValue, 0.38, 1.39255E-10, 2458.326
DataValue, 0.4, 1.39201E-10, 2468.901
DataValue, 0.42, 1.39162E-10, 2490
DataValue, 0.44, 1.3912500000000002E-10, 2478.561
DataValue, 0.46, 1.39077E-10, 2479.898
DataValue, 0.48, 1.39011E-10, 2490.427
DataValue, 0.5, 1.3897E-10, 2486.974
DataValue, 0.52, 1.38957E-10, 2463.56
DataValue, 0.54, 1.3890500000000002E-10, 2494.817
DataValue, 0.56, 1.3887400000000002E-10, 2479.698
DataValue, 0.58, 1.38806E-10, 2492.18
DataValue, 0.6, 1.38773E-10, 2484.839
DataValue, 0.62, 1.38713E-10, 2496.786
DataValue, 0.64, 1.3870500000000001E-10, 2456.741
DataValue, 0.66, 1.38653E-10, 2487.286
DataValue, 0.68, 1.3856700000000002E-10, 2501.459
DataValue, 0.70000000000000007, 1.3853E-10, 2501.542
DataValue, 0.72, 1.38496E-10, 2495.9030000000002
DataValue, 0.74, 1.38463E-10, 2503.65
DataValue, 0.76, 1.38408E-10, 2514.301
DataValue, 0.78, 1.38387E-10, 2487.947
DataValue, 0.8, 1.38324E-10, 2497.578
DataValue, 0.82000000000000006, 1.38316E-10, 2483.63
DataValue, 0.84, 1.3827E-10, 2495.157
DataValue, 0.86, 1.38186E-10, 2528.238
DataValue, 0.88, 1.38177E-10, 2487.631
DataValue, 0.9, 1.38161E-10, 2481.2000000000003
DataValue, 0.92, 1.3807000000000002E-10, 2517.9900000000002
