
SetupTitle, C-V Sweep
PrimitiveTest, C-V Sweep
TestParameter, Channel.UnitTyp, CMU
TestParameter, Channel.Unit, CMU1:MF/SC
TestParameter, Channel.IName, 
TestParameter, Channel.VName, VBias
TestParameter, Channel.Mode, 
TestParameter, Channel.Func, VAR1
TestParameter, Channel.Index, 
TestParameter, Channel.Time, 
TestParameter, Measurement.Primary.Locus, Double
TestParameter, Measurement.Primary.Scale, LINEAR
TestParameter, Measurement.Primary.Start, -1
TestParameter, Measurement.Primary.Stop, 1
TestParameter, Measurement.Primary.Step, 0.02
TestParameter, Measurement.Aborting.Condition, CONTINUE AT ANY
TestParameter, Measurement.PostOutput.Value, START
TestParameter, Measurement.PostOutput.Retention, OFF
TestParameter, Measurement.Secondary.ACLevel, 0.05
TestParameter, Measurement.Secondary.FName, Freq
TestParameter, Measurement.Secondary.Frequency, 1000, 10000, 100000, 1000000
TestParameter, Measurement.Bias.Source, 0
TestParameter, Measurement.ImpedanceMode.Model, Cs-Rs
TestParameter, Measurement.ImpedanceMode.CName, C
TestParameter, Measurement.ImpedanceMode.LName, L
TestParameter, Measurement.ImpedanceMode.GName, G
TestParameter, Measurement.ImpedanceMode.RName, R
TestParameter, Measurement.ImpedanceMode.QName, Q
TestParameter, Measurement.ImpedanceMode.DName, D
TestParameter, Measurement.ImpedanceMode.YName, Y
TestParameter, Measurement.ImpedanceMode.ZName, Z
TestParameter, Measurement.ImpedanceMode.ThName, Theta
TestParameter, Measurement.ImpedanceMode.BName, B
TestParameter, Measurement.ImpedanceMode.XName, X
TestParameter, Measurement.Monitor.Unit, CMU1:MF/SC
TestParameter, Measurement.Monitor.RangingMode, AUTO
TestParameter, Measurement.Monitor.RangeBoundary, 50
TestParameter, Measurement.Monitor.AcMonitorSymbol, 
TestParameter, Measurement.Monitor.DcMonitorSymbol, 
TestParameter, Measurement.Timing.Hold, 0
TestParameter, Measurement.Timing.Delay, 0
TestParameter, Measurement.Adc.UnitType, Cmu, Smu
TestParameter, Measurement.Adc.HighResolution.Mode, AUTO, AUTO
TestParameter, Measurement.Adc.HighResolution.Coeff, 2, 6
TestParameter, Measurement.WaitTime.Source.Coeff, 1
TestParameter, Measurement.WaitTime.Source.Offset, 0
TestParameter, Measurement.WaitTime.Monitor.Coeff, 1
TestParameter, Measurement.WaitTime.Monitor.Offset, 0
TestParameter, Output.Graph.Enabled, true
TestParameter, Output.Graph.AutoScaling, false
TestParameter, Output.Graph.XAxis.Data, VBias
TestParameter, Output.Graph.XAxis.Scale, Linear
TestParameter, Output.Graph.XAxis.Left, -0.1
TestParameter, Output.Graph.XAxis.Right, 0.1
TestParameter, Output.Graph.XAxis.RunTimeAutoScale, true
TestParameter, Output.Graph.YAxis.Data, C, R
TestParameter, Output.Graph.YAxis.Scale, Linear, Linear
TestParameter, Output.Graph.YAxis.Bottom, 0, 0
TestParameter, Output.Graph.YAxis.Top, 1E-10, 10000
TestParameter, Output.Graph.YAxis.Group, , 
TestParameter, Output.Graph.YAxis.RunTimeAutoScale, true, true
TestParameter, AutoAnalysis.Interpolation, false
TestParameter, AutoAnalysis.Line1.Enabled, false
TestParameter, AutoAnalysis.Line1.Type, 1
TestParameter, AutoAnalysis.Line1.Fix, True
TestParameter, AutoAnalysis.Line1.YAxis, 0
TestParameter, AutoAnalysis.Line1.Point1.Type, 0
TestParameter, AutoAnalysis.Line1.Point1.XY.X, 
TestParameter, AutoAnalysis.Line1.Point1.XY.Y, 
TestParameter, AutoAnalysis.Line1.Point1.Data.Var, 
TestParameter, AutoAnalysis.Line1.Point1.Data.Condition, 
TestParameter, AutoAnalysis.Line1.Point1.Data.Start, false
TestParameter, AutoAnalysis.Line1.Point1.Data.StartVar, 
TestParameter, AutoAnalysis.Line1.Point1.Data.StartCondition, 
TestParameter, AutoAnalysis.Line1.Point2.Type, 0
TestParameter, AutoAnalysis.Line1.Point2.XY.X, 
TestParameter, AutoAnalysis.Line1.Point2.XY.Y, 
TestParameter, AutoAnalysis.Line1.Point2.Data.Var, 
TestParameter, AutoAnalysis.Line1.Point2.Data.Condition, 
TestParameter, AutoAnalysis.Line1.Point2.Data.Start, false
TestParameter, AutoAnalysis.Line1.Point2.Data.StartVar, 
TestParameter, AutoAnalysis.Line1.Point2.Data.StartCondition, 
TestParameter, AutoAnalysis.Line1.GradientExpr, 0
TestParameter, AutoAnalysis.Line2.Enabled, false
TestParameter, AutoAnalysis.Line2.Type, 1
TestParameter, AutoAnalysis.Line2.Fix, True
TestParameter, AutoAnalysis.Line2.YAxis, 0
TestParameter, AutoAnalysis.Line2.Point1.Type, 0
TestParameter, AutoAnalysis.Line2.Point1.XY.X, 
TestParameter, AutoAnalysis.Line2.Point1.XY.Y, 
TestParameter, AutoAnalysis.Line2.Point1.Data.Var, 
TestParameter, AutoAnalysis.Line2.Point1.Data.Condition, 
TestParameter, AutoAnalysis.Line2.Point1.Data.Start, false
TestParameter, AutoAnalysis.Line2.Point1.Data.StartVar, 
TestParameter, AutoAnalysis.Line2.Point1.Data.StartCondition, 
TestParameter, AutoAnalysis.Line2.Point2.Type, 0
TestParameter, AutoAnalysis.Line2.Point2.XY.X, 
TestParameter, AutoAnalysis.Line2.Point2.XY.Y, 
TestParameter, AutoAnalysis.Line2.Point2.Data.Var, 
TestParameter, AutoAnalysis.Line2.Point2.Data.Condition, 
TestParameter, AutoAnalysis.Line2.Point2.Data.Start, false
TestParameter, AutoAnalysis.Line2.Point2.Data.StartVar, 
TestParameter, AutoAnalysis.Line2.Point2.Data.StartCondition, 
TestParameter, AutoAnalysis.Line2.GradientExpr, 0
TestParameter, AutoAnalysis.Marker.Enabled, false
TestParameter, AutoAnalysis.Marker.Data.Var, 
TestParameter, AutoAnalysis.Marker.Data.Condition, 
TestParameter, AutoAnalysis.Marker.Data.Start, false
TestParameter, AutoAnalysis.Marker.Data.StartVar, 
TestParameter, AutoAnalysis.Marker.Data.StartCondition, 
MetaData, TestRecord.EntryPoint, true
MetaData, TestRecord.RecordTime, 11/25/2019 16:35:09
MetaData, TestRecord.TestTarget, Al2O3_1.0_10
MetaData, TestRecord.IterationIndex, 1
MetaData, TestRecord.Preservation, true
MetaData, TestRecord.Flag, 
MetaData, TestRecord.Remarks, 
MetaData, TestRecord.LinkKey, 86b8eb86-dbad-4986-914c-ae4911652abc
Dimension1, 202, 202, 202
Dimension2, 4, 4, 4
DataName, VBias, C, R
DataValue, -1, 1.4302700000000002E-10, 7678.627
DataValue, -0.98, 1.42974E-10, 7772.462
DataValue, -0.96, 1.42919E-10, 7707.474
DataValue, -0.94000000000000006, 1.42896E-10, 7625.714
DataValue, -0.92, 1.42842E-10, 7487.923
DataValue, -0.9, 1.4285200000000002E-10, 7558.1590000000006
DataValue, -0.88, 1.4277600000000001E-10, 7599.794
DataValue, -0.86, 1.4276E-10, 7668.616
DataValue, -0.84, 1.42693E-10, 7614.8420000000006
DataValue, -0.82000000000000006, 1.42652E-10, 7492.094
DataValue, -0.8, 1.42627E-10, 7291.353
DataValue, -0.78, 1.4257200000000002E-10, 7746.63
DataValue, -0.76, 1.4256800000000001E-10, 7654.504
DataValue, -0.74, 1.42506E-10, 7560.5470000000005
DataValue, -0.72, 1.42455E-10, 7573.097
DataValue, -0.70000000000000007, 1.4242100000000002E-10, 7284.892
DataValue, -0.68, 1.42381E-10, 7460.07
DataValue, -0.66, 1.42356E-10, 7467.4490000000005
DataValue, -0.64, 1.42317E-10, 7131.828
DataValue, -0.62, 1.42263E-10, 7409.294
DataValue, -0.6, 1.4223E-10, 7679.993
DataValue, -0.58, 1.4219200000000002E-10, 7741.37
DataValue, -0.56, 1.4214700000000002E-10, 7480.521
DataValue, -0.54, 1.4212000000000002E-10, 7318.818
DataValue, -0.52, 1.42097E-10, 7680.447
DataValue, -0.5, 1.4208100000000002E-10, 7486.745
DataValue, -0.48, 1.41959E-10, 7347.964
DataValue, -0.46, 1.41938E-10, 7517.109
DataValue, -0.44, 1.41892E-10, 7541.664
DataValue, -0.42, 1.4186300000000002E-10, 7571.021
DataValue, -0.4, 1.41823E-10, 7631.895
DataValue, -0.38, 1.41807E-10, 7518.179
DataValue, -0.36, 1.41753E-10, 7533.201
DataValue, -0.34, 1.41682E-10, 7670.648
DataValue, -0.32, 1.4167100000000002E-10, 7635.2440000000006
DataValue, -0.3, 1.4163400000000002E-10, 7531.075
DataValue, -0.28, 1.41578E-10, 7314.835
DataValue, -0.26, 1.41515E-10, 7560.1900000000005
DataValue, -0.24, 1.41503E-10, 7735.916
DataValue, -0.22, 1.4146900000000002E-10, 7372.191
DataValue, -0.2, 1.4143900000000002E-10, 7292.8020000000006
DataValue, -0.18, 1.4136900000000002E-10, 7870.224
DataValue, -0.16, 1.4133300000000002E-10, 7497.554
DataValue, -0.14, 1.41319E-10, 7289.38
DataValue, -0.12, 1.41256E-10, 7619.5
DataValue, -0.1, 1.4122200000000002E-10, 7485.109
DataValue, -0.08, 1.4119100000000001E-10, 7388.146
DataValue, -0.06, 1.41142E-10, 7313.728
DataValue, -0.04, 1.41096E-10, 7349.07
DataValue, -0.02, 1.41052E-10, 7166.462
DataValue, 0, 1.41024E-10, 7507.4220000000005
DataValue, 0.02, 1.4100200000000002E-10, 7640.7300000000005
DataValue, 0.04, 1.40998E-10, 7684.384
DataValue, 0.06, 1.4092600000000002E-10, 7822.881
DataValue, 0.08, 1.4088E-10, 7604.251
DataValue, 0.1, 1.40847E-10, 7410.64
DataValue, 0.12, 1.40838E-10, 7480.862
DataValue, 0.14, 1.40783E-10, 7334.917
DataValue, 0.16, 1.4075500000000002E-10, 7566.781
DataValue, 0.18, 1.40683E-10, 7583.888
DataValue, 0.2, 1.4062500000000002E-10, 7288.3150000000005
DataValue, 0.22, 1.40608E-10, 7604.77
DataValue, 0.24, 1.4061000000000002E-10, 7371.798
DataValue, 0.26, 1.40533E-10, 7366.407
DataValue, 0.28, 1.4048700000000002E-10, 7443.417
DataValue, 0.3, 1.4044100000000002E-10, 7731.857
DataValue, 0.32, 1.40412E-10, 7778.175
DataValue, 0.34, 1.40395E-10, 7566.319
DataValue, 0.36, 1.4030600000000002E-10, 7565.508
DataValue, 0.38, 1.4028400000000001E-10, 7587.51
DataValue, 0.4, 1.4026700000000002E-10, 7843.462
DataValue, 0.42, 1.40241E-10, 7600.8730000000005
DataValue, 0.44, 1.4016400000000002E-10, 7520.4130000000005
DataValue, 0.46, 1.40151E-10, 7380.381
DataValue, 0.48, 1.40118E-10, 7417.6630000000005
DataValue, 0.5, 1.4005200000000001E-10, 7598.928
DataValue, 0.52, 1.40018E-10, 7496.622
DataValue, 0.54, 1.4E-10, 7720.169
DataValue, 0.56, 1.3993500000000002E-10, 7544.8110000000006
DataValue, 0.58, 1.39943E-10, 7478.908
DataValue, 0.6, 1.39897E-10, 7541.455
DataValue, 0.62, 1.3983600000000002E-10, 7694.7480000000005
DataValue, 0.64, 1.3977500000000002E-10, 7770.549
DataValue, 0.66, 1.3977500000000002E-10, 7643.522
DataValue, 0.68, 1.3975100000000002E-10, 7404.164
DataValue, 0.70000000000000007, 1.3972700000000002E-10, 7677.428
DataValue, 0.72, 1.39651E-10, 7639.3150000000005
DataValue, 0.74, 1.3957700000000002E-10, 7669.419
DataValue, 0.76, 1.3958300000000002E-10, 7476.337
DataValue, 0.78, 1.3956400000000002E-10, 7518.081
DataValue, 0.8, 1.39515E-10, 7775.337
DataValue, 0.82000000000000006, 1.39475E-10, 7788.075
DataValue, 0.84, 1.3943200000000002E-10, 7554.3640000000005
DataValue, 0.86, 1.39394E-10, 7827.7390000000005
DataValue, 0.88, 1.3935700000000002E-10, 7393.536
DataValue, 0.9, 1.39297E-10, 7638.1100000000006
DataValue, 0.92, 1.39304E-10, 7778.74
DataValue, 0.94000000000000006, 1.3923600000000002E-10, 7613.424
DataValue, 0.96, 1.39211E-10, 7672.97
DataValue, 0.98, 1.3914800000000001E-10, 7589.211
DataValue, 1, 1.3913900000000001E-10, 7649.545
DataValue, 1, 1.3913300000000002E-10, 7875.0740000000005
DataValue, 0.98, 1.3915200000000002E-10, 7734.683
DataValue, 0.96, 1.39208E-10, 7377.2570000000005
DataValue, 0.94000000000000006, 1.39249E-10, 7576.674
DataValue, 0.92, 1.39256E-10, 7498.037
DataValue, 0.9, 1.3930800000000002E-10, 7658.189
DataValue, 0.88, 1.39348E-10, 7391.1320000000005
DataValue, 0.86, 1.3939600000000002E-10, 7581.361
DataValue, 0.84, 1.3938600000000001E-10, 7630.154
DataValue, 0.82000000000000006, 1.39445E-10, 7506.139
DataValue, 0.8, 1.3949200000000002E-10, 7652.1230000000005
DataValue, 0.78, 1.39559E-10, 7557.743
DataValue, 0.76, 1.39572E-10, 7707.743
DataValue, 0.74, 1.3962E-10, 7655.095
DataValue, 0.72, 1.39663E-10, 7333.562
DataValue, 0.70000000000000007, 1.39669E-10, 7866.1900000000005
DataValue, 0.68, 1.39722E-10, 7763.857
DataValue, 0.66, 1.39752E-10, 7596.6230000000005
DataValue, 0.64, 1.3980200000000002E-10, 7479.905
DataValue, 0.62, 1.39813E-10, 7561.412
DataValue, 0.6, 1.3985900000000001E-10, 7631.214
DataValue, 0.58, 1.3988400000000002E-10, 7800.387
DataValue, 0.56, 1.3994100000000002E-10, 7524.3600000000006
DataValue, 0.54, 1.3995900000000002E-10, 7538.912
DataValue, 0.52, 1.40024E-10, 7590.147
DataValue, 0.5, 1.4003800000000002E-10, 7510.122
DataValue, 0.48, 1.40078E-10, 7337.5430000000006
DataValue, 0.46, 1.40099E-10, 7519.737
DataValue, 0.44, 1.40171E-10, 7504.549
DataValue, 0.42, 1.4021E-10, 7562.049
DataValue, 0.4, 1.40202E-10, 7707.049
DataValue, 0.38, 1.4026000000000002E-10, 7536.381
DataValue, 0.36, 1.4031400000000001E-10, 7438.332
DataValue, 0.34, 1.40368E-10, 7552.372
DataValue, 0.32, 1.404E-10, 7476.134
DataValue, 0.3, 1.40416E-10, 7537.285
DataValue, 0.28, 1.4048700000000002E-10, 7269.218
DataValue, 0.26, 1.4051900000000001E-10, 7334.03
DataValue, 0.24, 1.40552E-10, 7494.917
DataValue, 0.22, 1.40573E-10, 7459.305
DataValue, 0.2, 1.40636E-10, 7469.424
DataValue, 0.18, 1.40686E-10, 7493.787
DataValue, 0.16, 1.40711E-10, 7286.7570000000005
DataValue, 0.14, 1.4073600000000001E-10, 7463.332
DataValue, 0.12, 1.40817E-10, 7473.771
DataValue, 0.1, 1.40832E-10, 7749.26
DataValue, 0.08, 1.4087E-10, 7344.095
DataValue, 0.06, 1.4091400000000002E-10, 7242.441
DataValue, 0.04, 1.40921E-10, 7370.969
DataValue, 0.02, 1.4099500000000001E-10, 7464.243
DataValue, 0, 1.4101400000000002E-10, 7387.314
DataValue, -0.02, 1.4106500000000002E-10, 7572.387
DataValue, -0.04, 1.41085E-10, 7616.776
DataValue, -0.06, 1.4113400000000002E-10, 7559.452
DataValue, -0.08, 1.41205E-10, 7270.097
DataValue, -0.1, 1.41229E-10, 7409.911
DataValue, -0.12, 1.41253E-10, 7580.191
DataValue, -0.14, 1.41304E-10, 7314.304
DataValue, -0.16, 1.41331E-10, 7653.277
DataValue, -0.18, 1.41356E-10, 7667.4180000000006
DataValue, -0.2, 1.4141100000000001E-10, 7373.934
DataValue, -0.22, 1.4145000000000001E-10, 7550.487
DataValue, -0.24, 1.41491E-10, 7412.879
DataValue, -0.26, 1.41528E-10, 7514.2930000000006
DataValue, -0.28, 1.41591E-10, 7539.225
DataValue, -0.3, 1.41618E-10, 7328.5
DataValue, -0.32, 1.41663E-10, 7534.058
DataValue, -0.34, 1.4166E-10, 7463.6140000000005
DataValue, -0.36, 1.4172E-10, 7580.629
DataValue, -0.38, 1.4177600000000002E-10, 7589.408
DataValue, -0.4, 1.4181800000000002E-10, 7335.381
DataValue, -0.42, 1.41868E-10, 7628.072
DataValue, -0.44, 1.4187600000000002E-10, 7520.861
DataValue, -0.46, 1.41956E-10, 7658.9980000000005
DataValue, -0.48, 1.4196000000000002E-10, 7563.156
DataValue, -0.5, 1.42006E-10, 7520.809
DataValue, -0.52, 1.4204E-10, 7718.344
DataValue, -0.54, 1.4209000000000002E-10, 7564.531
DataValue, -0.56, 1.42151E-10, 8046.2660000000005
DataValue, -0.58, 1.4213E-10, 7322.54
DataValue, -0.6, 1.4222E-10, 7516.049
DataValue, -0.62, 1.4222800000000002E-10, 7536.8730000000005
DataValue, -0.64, 1.4228800000000002E-10, 7334.902
DataValue, -0.66, 1.42308E-10, 7717.0380000000005
DataValue, -0.68, 1.42369E-10, 7575.558
DataValue, -0.70000000000000007, 1.4242100000000002E-10, 7517.479
DataValue, -0.72, 1.4243300000000002E-10, 7889.612
DataValue, -0.74, 1.4250200000000002E-10, 7475.407
DataValue, -0.76, 1.42498E-10, 7387.372
DataValue, -0.78, 1.4254700000000002E-10, 7839.823
DataValue, -0.8, 1.4259300000000002E-10, 7582.964
DataValue, -0.82000000000000006, 1.4265300000000002E-10, 7464.7080000000005
DataValue, -0.84, 1.4269800000000002E-10, 7791.821
DataValue, -0.86, 1.4272800000000002E-10, 7310.102
DataValue, -0.88, 1.4279E-10, 7508.928
DataValue, -0.9, 1.4278000000000002E-10, 7581.1280000000006
DataValue, -0.92, 1.4284900000000002E-10, 7441.054
DataValue, -0.94000000000000006, 1.4293300000000002E-10, 7487.982
DataValue, -0.96, 1.4296300000000002E-10, 7925.925
DataValue, -0.98, 1.4299300000000002E-10, 7747.8
DataValue, -1, 1.43016E-10, 7648.122
DataValue, -1, 1.41597E-10, 925.0109
DataValue, -0.98, 1.4160100000000002E-10, 893.2213
DataValue, -0.96, 1.41551E-10, 872.1798
DataValue, -0.94000000000000006, 1.41486E-10, 912.92990000000009
DataValue, -0.92, 1.41455E-10, 898.9745
DataValue, -0.9, 1.4138400000000002E-10, 925.5218000000001
DataValue, -0.88, 1.41368E-10, 910.8089
DataValue, -0.86, 1.4130300000000002E-10, 918.75740000000008
DataValue, -0.84, 1.41272E-10, 923.9638
DataValue, -0.82000000000000006, 1.41257E-10, 900.18220000000008
DataValue, -0.8, 1.4121300000000002E-10, 894.6493
DataValue, -0.78, 1.4118800000000001E-10, 886.51330000000007
DataValue, -0.76, 1.41112E-10, 923.4767
DataValue, -0.74, 1.4112200000000002E-10, 885.7763
DataValue, -0.72, 1.4105600000000002E-10, 910.0013
DataValue, -0.70000000000000007, 1.4104100000000002E-10, 886.9561
DataValue, -0.68, 1.40961E-10, 893.5674
DataValue, -0.66, 1.4092600000000002E-10, 910.34120000000007
DataValue, -0.64, 1.40892E-10, 901.72880000000009
DataValue, -0.62, 1.4086600000000002E-10, 894.55860000000007
DataValue, -0.6, 1.4085100000000002E-10, 874.796
DataValue, -0.58, 1.4079400000000002E-10, 889.52100000000007
DataValue, -0.56, 1.40741E-10, 907.72840000000008
DataValue, -0.54, 1.40689E-10, 910.611
DataValue, -0.52, 1.40659E-10, 910.8215
DataValue, -0.5, 1.40645E-10, 881.87160000000006
DataValue, -0.48, 1.40609E-10, 880.7667
DataValue, -0.46, 1.4056500000000002E-10, 890.83890000000008
DataValue, -0.44, 1.40512E-10, 885.0286000000001
DataValue, -0.42, 1.40485E-10, 879.5265
DataValue, -0.4, 1.40451E-10, 877.09080000000006
DataValue, -0.38, 1.4040200000000002E-10, 894.9215
DataValue, -0.36, 1.40353E-10, 898.14780000000007
DataValue, -0.34, 1.4033600000000002E-10, 882.5389
DataValue, -0.32, 1.4026100000000002E-10, 929.672
DataValue, -0.3, 1.40252E-10, 891.0102
DataValue, -0.28, 1.4018800000000002E-10, 946.3248000000001
DataValue, -0.26, 1.40165E-10, 936.97520000000009
DataValue, -0.24, 1.4012800000000002E-10, 921.7558
DataValue, -0.22, 1.4006100000000001E-10, 943.74110000000007
DataValue, -0.2, 1.4004700000000002E-10, 938.3062
DataValue, -0.18, 1.40008E-10, 924.008
DataValue, -0.16, 1.39966E-10, 954.62240000000008
DataValue, -0.14, 1.399E-10, 954.147
DataValue, -0.12, 1.39898E-10, 922.49600000000009
DataValue, -0.1, 1.3984100000000001E-10, 918.85390000000007
DataValue, -0.08, 1.3982700000000002E-10, 943.57080000000008
DataValue, -0.06, 1.3979300000000002E-10, 914.4561
DataValue, -0.04, 1.39746E-10, 923.6255
DataValue, -0.02, 1.39735E-10, 909.2063
DataValue, 0, 1.3966E-10, 932.89740000000006
DataValue, 0.02, 1.39644E-10, 915.2367
DataValue, 0.04, 1.3959200000000002E-10, 928.33760000000007
DataValue, 0.06, 1.39551E-10, 931.5664
DataValue, 0.08, 1.3949200000000002E-10, 969.30360000000007
DataValue, 0.1, 1.39481E-10, 944.89420000000007
DataValue, 0.12, 1.3944100000000002E-10, 923.86070000000007
DataValue, 0.14, 1.3939600000000002E-10, 935.2957
DataValue, 0.16, 1.3935700000000002E-10, 938.20890000000009
DataValue, 0.18, 1.39324E-10, 949.6389
DataValue, 0.2, 1.3926300000000002E-10, 958.28640000000007
DataValue, 0.22, 1.39238E-10, 966.2721
DataValue, 0.24, 1.39211E-10, 930.865
DataValue, 0.26, 1.3914900000000002E-10, 951.2277
DataValue, 0.28, 1.39114E-10, 952.8414
DataValue, 0.3, 1.39104E-10, 933.4416
DataValue, 0.32, 1.39036E-10, 961.119
DataValue, 0.34, 1.38988E-10, 973.26870000000008
DataValue, 0.36, 1.38997E-10, 938.30760000000009
DataValue, 0.38, 1.3891100000000002E-10, 975.51830000000007
DataValue, 0.4, 1.3888000000000002E-10, 972.8812
DataValue, 0.42, 1.3883500000000002E-10, 964.3948
DataValue, 0.44, 1.38795E-10, 971.1109
DataValue, 0.46, 1.3877800000000002E-10, 984.2509
DataValue, 0.48, 1.3874E-10, 961.86790000000008
DataValue, 0.5, 1.38692E-10, 991.0348
DataValue, 0.52, 1.3867300000000002E-10, 967.12520000000006
DataValue, 0.54, 1.3863000000000002E-10, 973.9912
DataValue, 0.56, 1.38571E-10, 974.24740000000008
DataValue, 0.58, 1.3854900000000002E-10, 1001.328
DataValue, 0.6, 1.38514E-10, 962.9751
DataValue, 0.62, 1.3847400000000002E-10, 975.5493
DataValue, 0.64, 1.38432E-10, 1007.126
DataValue, 0.66, 1.38375E-10, 1027.85
DataValue, 0.68, 1.38372E-10, 990.80850000000009
DataValue, 0.70000000000000007, 1.38315E-10, 996.66190000000006
DataValue, 0.72, 1.3828100000000002E-10, 1023.039
