
SetupTitle, C-V Sweep
PrimitiveTest, C-V Sweep
TestParameter, Channel.UnitTyp, CMU
TestParameter, Channel.Unit, CMU1:MF/SC
TestParameter, Channel.IName, 
TestParameter, Channel.VName, VBias
TestParameter, Channel.Mode, 
TestParameter, Channel.Func, VAR1
TestParameter, Channel.Index, 
TestParameter, Channel.Time, 
TestParameter, Measurement.Primary.Locus, Double
TestParameter, Measurement.Primary.Scale, LINEAR
TestParameter, Measurement.Primary.Start, -1
TestParameter, Measurement.Primary.Stop, 1
TestParameter, Measurement.Primary.Step, 0.02
TestParameter, Measurement.Aborting.Condition, CONTINUE AT ANY
TestParameter, Measurement.PostOutput.Value, START
TestParameter, Measurement.PostOutput.Retention, OFF
TestParameter, Measurement.Secondary.ACLevel, 0.05
TestParameter, Measurement.Secondary.FName, Freq
TestParameter, Measurement.Secondary.Frequency, 1000, 10000, 100000, 1000000
TestParameter, Measurement.Bias.Source, 0
TestParameter, Measurement.ImpedanceMode.Model, Cs-Rs
TestParameter, Measurement.ImpedanceMode.CName, C
TestParameter, Measurement.ImpedanceMode.LName, L
TestParameter, Measurement.ImpedanceMode.GName, G
TestParameter, Measurement.ImpedanceMode.RName, R
TestParameter, Measurement.ImpedanceMode.QName, Q
TestParameter, Measurement.ImpedanceMode.DName, D
TestParameter, Measurement.ImpedanceMode.YName, Y
TestParameter, Measurement.ImpedanceMode.ZName, Z
TestParameter, Measurement.ImpedanceMode.ThName, Theta
TestParameter, Measurement.ImpedanceMode.BName, B
TestParameter, Measurement.ImpedanceMode.XName, X
TestParameter, Measurement.Monitor.Unit, CMU1:MF/SC
TestParameter, Measurement.Monitor.RangingMode, AUTO
TestParameter, Measurement.Monitor.RangeBoundary, 50
TestParameter, Measurement.Monitor.AcMonitorSymbol, 
TestParameter, Measurement.Monitor.DcMonitorSymbol, 
TestParameter, Measurement.Timing.Hold, 0
TestParameter, Measurement.Timing.Delay, 0
TestParameter, Measurement.Adc.UnitType, Cmu, Smu
TestParameter, Measurement.Adc.HighResolution.Mode, AUTO, AUTO
TestParameter, Measurement.Adc.HighResolution.Coeff, 2, 6
TestParameter, Measurement.WaitTime.Source.Coeff, 1
TestParameter, Measurement.WaitTime.Source.Offset, 0
TestParameter, Measurement.WaitTime.Monitor.Coeff, 1
TestParameter, Measurement.WaitTime.Monitor.Offset, 0
TestParameter, Output.Graph.Enabled, true
TestParameter, Output.Graph.AutoScaling, false
TestParameter, Output.Graph.XAxis.Data, VBias
TestParameter, Output.Graph.XAxis.Scale, Linear
TestParameter, Output.Graph.XAxis.Left, -0.1
TestParameter, Output.Graph.XAxis.Right, 0.1
TestParameter, Output.Graph.XAxis.RunTimeAutoScale, true
TestParameter, Output.Graph.YAxis.Data, C, R
TestParameter, Output.Graph.YAxis.Scale, Linear, Linear
TestParameter, Output.Graph.YAxis.Bottom, 0, 0
TestParameter, Output.Graph.YAxis.Top, 1E-10, 10000
TestParameter, Output.Graph.YAxis.Group, , 
TestParameter, Output.Graph.YAxis.RunTimeAutoScale, true, true
TestParameter, AutoAnalysis.Interpolation, false
TestParameter, AutoAnalysis.Line1.Enabled, false
TestParameter, AutoAnalysis.Line1.Type, 1
TestParameter, AutoAnalysis.Line1.Fix, True
TestParameter, AutoAnalysis.Line1.YAxis, 0
TestParameter, AutoAnalysis.Line1.Point1.Type, 0
TestParameter, AutoAnalysis.Line1.Point1.XY.X, 
TestParameter, AutoAnalysis.Line1.Point1.XY.Y, 
TestParameter, AutoAnalysis.Line1.Point1.Data.Var, 
TestParameter, AutoAnalysis.Line1.Point1.Data.Condition, 
TestParameter, AutoAnalysis.Line1.Point1.Data.Start, false
TestParameter, AutoAnalysis.Line1.Point1.Data.StartVar, 
TestParameter, AutoAnalysis.Line1.Point1.Data.StartCondition, 
TestParameter, AutoAnalysis.Line1.Point2.Type, 0
TestParameter, AutoAnalysis.Line1.Point2.XY.X, 
TestParameter, AutoAnalysis.Line1.Point2.XY.Y, 
TestParameter, AutoAnalysis.Line1.Point2.Data.Var, 
TestParameter, AutoAnalysis.Line1.Point2.Data.Condition, 
TestParameter, AutoAnalysis.Line1.Point2.Data.Start, false
TestParameter, AutoAnalysis.Line1.Point2.Data.StartVar, 
TestParameter, AutoAnalysis.Line1.Point2.Data.StartCondition, 
TestParameter, AutoAnalysis.Line1.GradientExpr, 0
TestParameter, AutoAnalysis.Line2.Enabled, false
TestParameter, AutoAnalysis.Line2.Type, 1
TestParameter, AutoAnalysis.Line2.Fix, True
TestParameter, AutoAnalysis.Line2.YAxis, 0
TestParameter, AutoAnalysis.Line2.Point1.Type, 0
TestParameter, AutoAnalysis.Line2.Point1.XY.X, 
TestParameter, AutoAnalysis.Line2.Point1.XY.Y, 
TestParameter, AutoAnalysis.Line2.Point1.Data.Var, 
TestParameter, AutoAnalysis.Line2.Point1.Data.Condition, 
TestParameter, AutoAnalysis.Line2.Point1.Data.Start, false
TestParameter, AutoAnalysis.Line2.Point1.Data.StartVar, 
TestParameter, AutoAnalysis.Line2.Point1.Data.StartCondition, 
TestParameter, AutoAnalysis.Line2.Point2.Type, 0
TestParameter, AutoAnalysis.Line2.Point2.XY.X, 
TestParameter, AutoAnalysis.Line2.Point2.XY.Y, 
TestParameter, AutoAnalysis.Line2.Point2.Data.Var, 
TestParameter, AutoAnalysis.Line2.Point2.Data.Condition, 
TestParameter, AutoAnalysis.Line2.Point2.Data.Start, false
TestParameter, AutoAnalysis.Line2.Point2.Data.StartVar, 
TestParameter, AutoAnalysis.Line2.Point2.Data.StartCondition, 
TestParameter, AutoAnalysis.Line2.GradientExpr, 0
TestParameter, AutoAnalysis.Marker.Enabled, false
TestParameter, AutoAnalysis.Marker.Data.Var, 
TestParameter, AutoAnalysis.Marker.Data.Condition, 
TestParameter, AutoAnalysis.Marker.Data.Start, false
TestParameter, AutoAnalysis.Marker.Data.StartVar, 
TestParameter, AutoAnalysis.Marker.Data.StartCondition, 
MetaData, TestRecord.EntryPoint, true
MetaData, TestRecord.RecordTime, 11/15/2019 05:18:39
MetaData, TestRecord.TestTarget, Al_2.0_10
MetaData, TestRecord.IterationIndex, 2
MetaData, TestRecord.Preservation, true
MetaData, TestRecord.Flag, 
MetaData, TestRecord.Remarks, 
MetaData, TestRecord.LinkKey, d682deb5-df90-447f-a628-9758ae5b5382
Dimension1, 202, 202, 202
Dimension2, 4, 4, 4
DataName, VBias, C, R
DataValue, -1, 2.29569E-10, 68957.09
DataValue, -0.98, 2.2951100000000003E-10, 69007.49
DataValue, -0.96, 2.2943800000000002E-10, 68997.14
DataValue, -0.94000000000000006, 2.2939000000000002E-10, 68938.96
DataValue, -0.92, 2.2929600000000002E-10, 68845.44
DataValue, -0.9, 2.2926100000000003E-10, 68831.64
DataValue, -0.88, 2.29184E-10, 68744.88
DataValue, -0.86, 2.2918200000000002E-10, 68856.040000000008
DataValue, -0.84, 2.2906E-10, 68769.2
DataValue, -0.82000000000000006, 2.2909200000000002E-10, 68755.08
DataValue, -0.8, 2.2904100000000003E-10, 68830.430000000008
DataValue, -0.78, 2.28997E-10, 68839.23
DataValue, -0.76, 2.2893300000000003E-10, 68563.59
DataValue, -0.74, 2.28921E-10, 68640.48
DataValue, -0.72, 2.2886000000000002E-10, 68794.33
DataValue, -0.70000000000000007, 2.28801E-10, 68681.53
DataValue, -0.68, 2.28726E-10, 68643.72
DataValue, -0.66, 2.2865500000000002E-10, 68919.36
DataValue, -0.64, 2.2866000000000002E-10, 69186.51
DataValue, -0.62, 2.28629E-10, 69084.930000000008
DataValue, -0.6, 2.2856E-10, 69326.98
DataValue, -0.58, 2.2856E-10, 69210.13
DataValue, -0.56, 2.2851700000000003E-10, 69295.09
DataValue, -0.54, 2.2846900000000003E-10, 69203.78
DataValue, -0.52, 2.2845800000000001E-10, 69035.24
DataValue, -0.5, 2.2839600000000003E-10, 68977.96
DataValue, -0.48, 2.2836000000000003E-10, 69135.41
DataValue, -0.46, 2.2835900000000002E-10, 69242.31
DataValue, -0.44, 2.28268E-10, 69288.57
DataValue, -0.42, 2.2829000000000002E-10, 69020.540000000008
DataValue, -0.4, 2.2821500000000002E-10, 69094.98
DataValue, -0.38, 2.2819300000000002E-10, 69065.78
DataValue, -0.36, 2.2817900000000002E-10, 69114.290000000008
DataValue, -0.34, 2.28123E-10, 69158.86
DataValue, -0.32, 2.2809700000000002E-10, 68960.63
DataValue, -0.3, 2.2805300000000003E-10, 68757.32
DataValue, -0.28, 2.2802000000000003E-10, 68876.14
DataValue, -0.26, 2.2801700000000003E-10, 68870.88
DataValue, -0.24, 2.2802100000000001E-10, 69011.13
DataValue, -0.22, 2.2798500000000002E-10, 68818.34
DataValue, -0.2, 2.2798500000000002E-10, 69005.3
DataValue, -0.18, 2.27933E-10, 69012.57
DataValue, -0.16, 2.27921E-10, 68697.69
DataValue, -0.14, 2.27936E-10, 68617.540000000008
DataValue, -0.12, 2.2789500000000002E-10, 68973.33
DataValue, -0.1, 2.2791600000000002E-10, 68759.75
DataValue, -0.08, 2.2789800000000002E-10, 68634.24
DataValue, -0.06, 2.2795000000000003E-10, 68679.98
DataValue, -0.04, 2.2787100000000002E-10, 68609.94
DataValue, -0.02, 2.2787100000000002E-10, 68860.67
DataValue, 0, 2.2787500000000003E-10, 68751.52
DataValue, 0.02, 2.27888E-10, 68729.82
DataValue, 0.04, 2.2785100000000003E-10, 68682.35
DataValue, 0.06, 2.2783800000000002E-10, 68774.69
DataValue, 0.08, 2.2782400000000003E-10, 68873.55
DataValue, 0.1, 2.2779800000000001E-10, 69105.88
DataValue, 0.12, 2.2781200000000003E-10, 69033.2
DataValue, 0.14, 2.2780800000000002E-10, 69159.47
DataValue, 0.16, 2.27861E-10, 69053.4
DataValue, 0.18, 2.2781800000000003E-10, 69002.65
DataValue, 0.2, 2.2781500000000003E-10, 69028.57
DataValue, 0.22, 2.2780600000000003E-10, 69059.69
DataValue, 0.24, 2.27813E-10, 69105.25
DataValue, 0.26, 2.27816E-10, 68938.430000000008
DataValue, 0.28, 2.27858E-10, 68951.28
DataValue, 0.3, 2.27834E-10, 69196.23
DataValue, 0.32, 2.2782100000000003E-10, 69154.32
DataValue, 0.34, 2.2782600000000002E-10, 69162.25
DataValue, 0.36, 2.2782700000000003E-10, 69306.71
DataValue, 0.38, 2.2787100000000002E-10, 69129.46
DataValue, 0.4, 2.27885E-10, 69216.21
DataValue, 0.42, 2.2787200000000003E-10, 69242.56
DataValue, 0.44, 2.27915E-10, 69142.36
DataValue, 0.46, 2.27927E-10, 69285.78
DataValue, 0.48, 2.2799700000000001E-10, 69158.07
DataValue, 0.5, 2.2798900000000002E-10, 69351.6
DataValue, 0.52, 2.2802600000000003E-10, 69236.65
DataValue, 0.54, 2.28057E-10, 69287.69
DataValue, 0.56, 2.2807400000000003E-10, 69393.38
DataValue, 0.58, 2.28135E-10, 69165.08
DataValue, 0.6, 2.28138E-10, 69211.76
DataValue, 0.62, 2.2813300000000002E-10, 69235.040000000008
DataValue, 0.64, 2.2818500000000002E-10, 69253.41
DataValue, 0.66, 2.2823000000000002E-10, 69348.23
DataValue, 0.68, 2.2825200000000003E-10, 68800.95
DataValue, 0.70000000000000007, 2.2829000000000002E-10, 68834.09
DataValue, 0.72, 2.2831800000000003E-10, 68840.34
DataValue, 0.74, 2.28364E-10, 68732.94
DataValue, 0.76, 2.2843700000000002E-10, 68758.36
DataValue, 0.78, 2.2845600000000002E-10, 68759.540000000008
DataValue, 0.8, 2.2850700000000002E-10, 68738.41
DataValue, 0.82000000000000006, 2.28503E-10, 68765.51
DataValue, 0.84, 2.28572E-10, 68827.88
DataValue, 0.86, 2.2863000000000002E-10, 68687.55
DataValue, 0.88, 2.2867900000000002E-10, 68834.24
DataValue, 0.9, 2.2872100000000002E-10, 68940.84
DataValue, 0.92, 2.28765E-10, 68881.65
DataValue, 0.94000000000000006, 2.28825E-10, 68800.88
DataValue, 0.96, 2.2881100000000002E-10, 68926.12
DataValue, 0.98, 2.2890800000000002E-10, 68908.57
DataValue, 1, 2.2899900000000003E-10, 68865.47
DataValue, 1, 2.2895400000000003E-10, 69072.94
DataValue, 0.98, 2.28903E-10, 69015.86
DataValue, 0.96, 2.28846E-10, 69060.61
DataValue, 0.94000000000000006, 2.28786E-10, 69021.19
DataValue, 0.92, 2.2871500000000002E-10, 69063.76
DataValue, 0.9, 2.28659E-10, 69053.41
DataValue, 0.88, 2.2859200000000003E-10, 69097.95
DataValue, 0.86, 2.2854000000000002E-10, 68832.05
DataValue, 0.84, 2.2849900000000003E-10, 69032.52
DataValue, 0.82000000000000006, 2.2851400000000003E-10, 68913.45
DataValue, 0.8, 2.2845500000000001E-10, 68930.2
DataValue, 0.78, 2.2841400000000002E-10, 68913.24
DataValue, 0.76, 2.28394E-10, 68975
DataValue, 0.74, 2.28364E-10, 68910.42
DataValue, 0.72, 2.2829000000000002E-10, 68915.4
DataValue, 0.70000000000000007, 2.2826700000000003E-10, 68946.1
DataValue, 0.68, 2.2822100000000002E-10, 68693.45
DataValue, 0.66, 2.28192E-10, 68657.57
DataValue, 0.64, 2.2815700000000002E-10, 69019.180000000008
DataValue, 0.62, 2.2811300000000003E-10, 69000.33
DataValue, 0.6, 2.28084E-10, 68976.21
DataValue, 0.58, 2.2806400000000002E-10, 69179.39
DataValue, 0.56, 2.2801900000000002E-10, 68891.13
DataValue, 0.54, 2.2800400000000002E-10, 69011.21
DataValue, 0.52, 2.28008E-10, 68815.96
DataValue, 0.5, 2.2794600000000002E-10, 68928.77
DataValue, 0.48, 2.27906E-10, 69053.56
DataValue, 0.46, 2.27939E-10, 68961.12
DataValue, 0.44, 2.2789000000000003E-10, 69202.35
DataValue, 0.42, 2.27861E-10, 68891.03
DataValue, 0.4, 2.27885E-10, 68887.4
DataValue, 0.38, 2.27849E-10, 69141.8
DataValue, 0.36, 2.27852E-10, 68796.76
DataValue, 0.34, 2.27846E-10, 69099.87
DataValue, 0.32, 2.2782100000000003E-10, 69031.94
DataValue, 0.3, 2.2780900000000003E-10, 68745.14
DataValue, 0.28, 2.2778600000000001E-10, 68841.86
DataValue, 0.26, 2.2777500000000002E-10, 68892.75
DataValue, 0.24, 2.2776300000000002E-10, 69032.06
DataValue, 0.22, 2.27764E-10, 68899.58
DataValue, 0.2, 2.27782E-10, 68965.180000000008
DataValue, 0.18, 2.2776900000000002E-10, 68963.92
DataValue, 0.16, 2.2777700000000001E-10, 68994.290000000008
DataValue, 0.14, 2.2776200000000001E-10, 69062.63
DataValue, 0.12, 2.27779E-10, 68969.5
DataValue, 0.1, 2.2778700000000002E-10, 68884.83
DataValue, 0.08, 2.27776E-10, 68985.95
DataValue, 0.06, 2.2778700000000002E-10, 68704.91
DataValue, 0.04, 2.27807E-10, 68742.42
DataValue, 0.02, 2.2781200000000003E-10, 68809.38
DataValue, 0, 2.2785400000000003E-10, 68704.85
DataValue, -0.02, 2.27849E-10, 68644.7
DataValue, -0.04, 2.2781100000000002E-10, 68723.14
DataValue, -0.06, 2.2785100000000003E-10, 68644.73
DataValue, -0.08, 2.2782000000000002E-10, 68865.09
DataValue, -0.1, 2.2788300000000002E-10, 68712.99
DataValue, -0.12, 2.2787200000000003E-10, 68735.34
DataValue, -0.14, 2.27894E-10, 68673.58
DataValue, -0.16, 2.2792300000000003E-10, 68761.72
DataValue, -0.18, 2.2795000000000003E-10, 68738.19
DataValue, -0.2, 2.2796800000000002E-10, 68576.36
DataValue, -0.22, 2.27984E-10, 68837.16
DataValue, -0.24, 2.2797100000000002E-10, 68550.4
DataValue, -0.26, 2.28039E-10, 68629.180000000008
DataValue, -0.28, 2.2806400000000002E-10, 68643.67
DataValue, -0.3, 2.2807600000000002E-10, 68663.19
DataValue, -0.32, 2.28105E-10, 68766.680000000008
DataValue, -0.34, 2.28129E-10, 68697.82
DataValue, -0.36, 2.2815500000000003E-10, 68892.040000000008
DataValue, -0.38, 2.2819000000000002E-10, 68916.19
DataValue, -0.4, 2.28213E-10, 68900.07
DataValue, -0.42, 2.2821700000000001E-10, 68853.38
DataValue, -0.44, 2.2826600000000002E-10, 68913.84
DataValue, -0.46, 2.2834100000000002E-10, 69005.65
DataValue, -0.48, 2.2833500000000002E-10, 68978.32
DataValue, -0.5, 2.28394E-10, 69025.35
DataValue, -0.52, 2.2840100000000002E-10, 68915.62
DataValue, -0.54, 2.2844100000000002E-10, 68920.17
DataValue, -0.56, 2.28515E-10, 68806.31
DataValue, -0.58, 2.2850500000000003E-10, 68986.49
DataValue, -0.6, 2.2852600000000003E-10, 68885.41
DataValue, -0.62, 2.2861300000000003E-10, 69034.07
DataValue, -0.64, 2.2864300000000002E-10, 68970.06
DataValue, -0.66, 2.2867800000000001E-10, 69079.48
DataValue, -0.68, 2.2875200000000003E-10, 69143.65
DataValue, -0.70000000000000007, 2.2878E-10, 69055.930000000008
DataValue, -0.72, 2.28837E-10, 69161
DataValue, -0.74, 2.2887200000000002E-10, 69110.02
DataValue, -0.76, 2.2891000000000001E-10, 69000.84
DataValue, -0.78, 2.2898400000000003E-10, 68990.39
DataValue, -0.8, 2.2897800000000003E-10, 69086.86
DataValue, -0.82000000000000006, 2.2902600000000003E-10, 69111.25
DataValue, -0.84, 2.2906E-10, 69217.02
DataValue, -0.86, 2.2913100000000002E-10, 69176.75
DataValue, -0.88, 2.2918000000000003E-10, 69169.17
DataValue, -0.9, 2.2921300000000003E-10, 69092.53
DataValue, -0.92, 2.2926600000000002E-10, 69189.09
DataValue, -0.94000000000000006, 2.29358E-10, 69322.8
DataValue, -0.96, 2.2937200000000002E-10, 69205.99
DataValue, -0.98, 2.2949600000000003E-10, 69411.49
DataValue, -1, 2.2954700000000002E-10, 69332.89
DataValue, -1, 1.7682900000000002E-10, 40729.8
DataValue, -0.98, 1.7692900000000002E-10, 40664.71
DataValue, -0.96, 1.7672100000000002E-10, 40705.08
DataValue, -0.94000000000000006, 1.7708500000000002E-10, 40549.08
DataValue, -0.92, 1.7710900000000001E-10, 40501.270000000004
DataValue, -0.9, 1.76966E-10, 40511.450000000004
DataValue, -0.88, 1.7686800000000001E-10, 40533.81
DataValue, -0.86, 1.7691700000000002E-10, 40496.64
DataValue, -0.84, 1.7704900000000002E-10, 40386.69
DataValue, -0.82000000000000006, 1.7707000000000002E-10, 40374.62
DataValue, -0.8, 1.76988E-10, 40341.31
DataValue, -0.78, 1.77027E-10, 40420.83
DataValue, -0.76, 1.7695300000000002E-10, 40415.22
DataValue, -0.74, 1.7676700000000003E-10, 40458.41
DataValue, -0.72, 1.7665800000000002E-10, 40486.18
DataValue, -0.70000000000000007, 1.76728E-10, 40441.56
DataValue, -0.68, 1.7664200000000001E-10, 40523.020000000004
DataValue, -0.66, 1.76572E-10, 40431.44
DataValue, -0.64, 1.76545E-10, 40437.200000000004
DataValue, -0.62, 1.7654400000000003E-10, 40426.01
DataValue, -0.6, 1.76569E-10, 40415.66
DataValue, -0.58, 1.76623E-10, 40409.01
DataValue, -0.56, 1.7639500000000002E-10, 40527.200000000004
DataValue, -0.54, 1.76322E-10, 40537.25
DataValue, -0.52, 1.7609500000000003E-10, 40676.24
DataValue, -0.5, 1.76156E-10, 40519.74
DataValue, -0.48, 1.7633200000000002E-10, 40453.67
DataValue, -0.46, 1.7621100000000001E-10, 40549.51
DataValue, -0.44, 1.7618400000000001E-10, 40523.64
DataValue, -0.42, 1.7610100000000003E-10, 40525.39
DataValue, -0.4, 1.7613600000000002E-10, 40562.66
DataValue, -0.38, 1.76352E-10, 40411.28
DataValue, -0.36, 1.7597900000000001E-10, 40594.22
DataValue, -0.34, 1.7596E-10, 40634.29
DataValue, -0.32, 1.75788E-10, 40763.450000000004
DataValue, -0.3, 1.7578100000000002E-10, 40726.15
DataValue, -0.28, 1.7602200000000002E-10, 40534.94
DataValue, -0.26, 1.75813E-10, 40693.42
DataValue, -0.24, 1.7587500000000003E-10, 40640.47
DataValue, -0.22, 1.75577E-10, 40856.08
DataValue, -0.2, 1.75749E-10, 40718.11
DataValue, -0.18, 1.7597100000000002E-10, 40564.49
DataValue, -0.16, 1.76223E-10, 40419.770000000004
DataValue, -0.14, 1.76291E-10, 40353.3
DataValue, -0.12, 1.7599200000000002E-10, 40515.46
DataValue, -0.1, 1.76162E-10, 40401.87
DataValue, -0.08, 1.7621500000000002E-10, 40416.07
DataValue, -0.06, 1.7588000000000002E-10, 40570.1
DataValue, -0.04, 1.7577800000000002E-10, 40677.21
DataValue, -0.02, 1.7578100000000002E-10, 40651.32
DataValue, 0, 1.76108E-10, 40470.73
DataValue, 0.02, 1.76008E-10, 40506.66
DataValue, 0.04, 1.7607600000000002E-10, 40421.22
DataValue, 0.06, 1.76288E-10, 40274.56
DataValue, 0.08, 1.7588000000000002E-10, 40560.94
DataValue, 0.1, 1.7588300000000002E-10, 40534.840000000004
DataValue, 0.12, 1.7603700000000002E-10, 40478.57
DataValue, 0.14, 1.7584700000000002E-10, 40541.090000000004
DataValue, 0.16, 1.7597100000000002E-10, 40523.81
DataValue, 0.18, 1.7573300000000002E-10, 40571.06
DataValue, 0.2, 1.75873E-10, 40538.04
DataValue, 0.22, 1.7594700000000002E-10, 40425.700000000004
DataValue, 0.24, 1.759E-10, 40453.78
DataValue, 0.26, 1.75746E-10, 40588.25
DataValue, 0.28, 1.75806E-10, 40568.79
DataValue, 0.3, 1.7600100000000002E-10, 40493.41
DataValue, 0.32, 1.75951E-10, 40426.5
DataValue, 0.34, 1.7601000000000002E-10, 40421.21
DataValue, 0.36, 1.7594600000000002E-10, 40456.75
DataValue, 0.38, 1.7619000000000001E-10, 40391.3
DataValue, 0.4, 1.7603E-10, 40475.18
DataValue, 0.42, 1.76093E-10, 40467.86
DataValue, 0.44, 1.7605200000000002E-10, 40468.55
DataValue, 0.46, 1.76132E-10, 40419.55
DataValue, 0.48, 1.7583500000000002E-10, 40544.86
DataValue, 0.5, 1.7587400000000002E-10, 40553.79
DataValue, 0.52, 1.7594000000000002E-10, 40503.69
DataValue, 0.54, 1.76123E-10, 40438.55
DataValue, 0.56, 1.7604300000000002E-10, 40468.43
DataValue, 0.58, 1.7601600000000002E-10, 40511.26
DataValue, 0.6, 1.76132E-10, 40440.54
DataValue, 0.62, 1.76069E-10, 40527.85
DataValue, 0.64, 1.76108E-10, 40460.97
DataValue, 0.66, 1.76108E-10, 40435.69
