
SetupTitle, C-V Sweep
PrimitiveTest, C-V Sweep
TestParameter, Channel.UnitTyp, CMU
TestParameter, Channel.Unit, CMU1:MF/SC
TestParameter, Channel.IName, 
TestParameter, Channel.VName, VBias
TestParameter, Channel.Mode, 
TestParameter, Channel.Func, VAR1
TestParameter, Channel.Index, 
TestParameter, Channel.Time, 
TestParameter, Measurement.Primary.Locus, Double
TestParameter, Measurement.Primary.Scale, LINEAR
TestParameter, Measurement.Primary.Start, -1
TestParameter, Measurement.Primary.Stop, 1
TestParameter, Measurement.Primary.Step, 0.02
TestParameter, Measurement.Aborting.Condition, CONTINUE AT ANY
TestParameter, Measurement.PostOutput.Value, START
TestParameter, Measurement.PostOutput.Retention, OFF
TestParameter, Measurement.Secondary.ACLevel, 0.05
TestParameter, Measurement.Secondary.FName, Freq
TestParameter, Measurement.Secondary.Frequency, 1000, 10000, 100000, 1000000
TestParameter, Measurement.Bias.Source, 0
TestParameter, Measurement.ImpedanceMode.Model, Cs-Rs
TestParameter, Measurement.ImpedanceMode.CName, C
TestParameter, Measurement.ImpedanceMode.LName, L
TestParameter, Measurement.ImpedanceMode.GName, G
TestParameter, Measurement.ImpedanceMode.RName, R
TestParameter, Measurement.ImpedanceMode.QName, Q
TestParameter, Measurement.ImpedanceMode.DName, D
TestParameter, Measurement.ImpedanceMode.YName, Y
TestParameter, Measurement.ImpedanceMode.ZName, Z
TestParameter, Measurement.ImpedanceMode.ThName, Theta
TestParameter, Measurement.ImpedanceMode.BName, B
TestParameter, Measurement.ImpedanceMode.XName, X
TestParameter, Measurement.Monitor.Unit, CMU1:MF/SC
TestParameter, Measurement.Monitor.RangingMode, AUTO
TestParameter, Measurement.Monitor.RangeBoundary, 50
TestParameter, Measurement.Monitor.AcMonitorSymbol, 
TestParameter, Measurement.Monitor.DcMonitorSymbol, 
TestParameter, Measurement.Timing.Hold, 0
TestParameter, Measurement.Timing.Delay, 0
TestParameter, Measurement.Adc.UnitType, Cmu, Smu
TestParameter, Measurement.Adc.HighResolution.Mode, AUTO, AUTO
TestParameter, Measurement.Adc.HighResolution.Coeff, 2, 6
TestParameter, Measurement.WaitTime.Source.Coeff, 1
TestParameter, Measurement.WaitTime.Source.Offset, 0
TestParameter, Measurement.WaitTime.Monitor.Coeff, 1
TestParameter, Measurement.WaitTime.Monitor.Offset, 0
TestParameter, Output.Graph.Enabled, true
TestParameter, Output.Graph.AutoScaling, false
TestParameter, Output.Graph.XAxis.Data, VBias
TestParameter, Output.Graph.XAxis.Scale, Linear
TestParameter, Output.Graph.XAxis.Left, -0.1
TestParameter, Output.Graph.XAxis.Right, 0.1
TestParameter, Output.Graph.XAxis.RunTimeAutoScale, true
TestParameter, Output.Graph.YAxis.Data, C, R
TestParameter, Output.Graph.YAxis.Scale, Linear, Linear
TestParameter, Output.Graph.YAxis.Bottom, 0, 0
TestParameter, Output.Graph.YAxis.Top, 1E-10, 10000
TestParameter, Output.Graph.YAxis.Group, , 
TestParameter, Output.Graph.YAxis.RunTimeAutoScale, true, true
TestParameter, AutoAnalysis.Interpolation, false
TestParameter, AutoAnalysis.Line1.Enabled, false
TestParameter, AutoAnalysis.Line1.Type, 1
TestParameter, AutoAnalysis.Line1.Fix, True
TestParameter, AutoAnalysis.Line1.YAxis, 0
TestParameter, AutoAnalysis.Line1.Point1.Type, 0
TestParameter, AutoAnalysis.Line1.Point1.XY.X, 
TestParameter, AutoAnalysis.Line1.Point1.XY.Y, 
TestParameter, AutoAnalysis.Line1.Point1.Data.Var, 
TestParameter, AutoAnalysis.Line1.Point1.Data.Condition, 
TestParameter, AutoAnalysis.Line1.Point1.Data.Start, false
TestParameter, AutoAnalysis.Line1.Point1.Data.StartVar, 
TestParameter, AutoAnalysis.Line1.Point1.Data.StartCondition, 
TestParameter, AutoAnalysis.Line1.Point2.Type, 0
TestParameter, AutoAnalysis.Line1.Point2.XY.X, 
TestParameter, AutoAnalysis.Line1.Point2.XY.Y, 
TestParameter, AutoAnalysis.Line1.Point2.Data.Var, 
TestParameter, AutoAnalysis.Line1.Point2.Data.Condition, 
TestParameter, AutoAnalysis.Line1.Point2.Data.Start, false
TestParameter, AutoAnalysis.Line1.Point2.Data.StartVar, 
TestParameter, AutoAnalysis.Line1.Point2.Data.StartCondition, 
TestParameter, AutoAnalysis.Line1.GradientExpr, 0
TestParameter, AutoAnalysis.Line2.Enabled, false
TestParameter, AutoAnalysis.Line2.Type, 1
TestParameter, AutoAnalysis.Line2.Fix, True
TestParameter, AutoAnalysis.Line2.YAxis, 0
TestParameter, AutoAnalysis.Line2.Point1.Type, 0
TestParameter, AutoAnalysis.Line2.Point1.XY.X, 
TestParameter, AutoAnalysis.Line2.Point1.XY.Y, 
TestParameter, AutoAnalysis.Line2.Point1.Data.Var, 
TestParameter, AutoAnalysis.Line2.Point1.Data.Condition, 
TestParameter, AutoAnalysis.Line2.Point1.Data.Start, false
TestParameter, AutoAnalysis.Line2.Point1.Data.StartVar, 
TestParameter, AutoAnalysis.Line2.Point1.Data.StartCondition, 
TestParameter, AutoAnalysis.Line2.Point2.Type, 0
TestParameter, AutoAnalysis.Line2.Point2.XY.X, 
TestParameter, AutoAnalysis.Line2.Point2.XY.Y, 
TestParameter, AutoAnalysis.Line2.Point2.Data.Var, 
TestParameter, AutoAnalysis.Line2.Point2.Data.Condition, 
TestParameter, AutoAnalysis.Line2.Point2.Data.Start, false
TestParameter, AutoAnalysis.Line2.Point2.Data.StartVar, 
TestParameter, AutoAnalysis.Line2.Point2.Data.StartCondition, 
TestParameter, AutoAnalysis.Line2.GradientExpr, 0
TestParameter, AutoAnalysis.Marker.Enabled, false
TestParameter, AutoAnalysis.Marker.Data.Var, 
TestParameter, AutoAnalysis.Marker.Data.Condition, 
TestParameter, AutoAnalysis.Marker.Data.Start, false
TestParameter, AutoAnalysis.Marker.Data.StartVar, 
TestParameter, AutoAnalysis.Marker.Data.StartCondition, 
MetaData, TestRecord.EntryPoint, true
MetaData, TestRecord.RecordTime, 11/25/2019 20:29:04
MetaData, TestRecord.TestTarget, Al2O3_2.0_5
MetaData, TestRecord.IterationIndex, 1
MetaData, TestRecord.Preservation, true
MetaData, TestRecord.Flag, 
MetaData, TestRecord.Remarks, 
MetaData, TestRecord.LinkKey, 8038ca59-9cab-483f-954d-d3c7d89034f1
Dimension1, 202, 202, 202
Dimension2, 4, 4, 4
DataName, VBias, C, R
DataValue, -1, 2.41567E-10, 24093.87
DataValue, -0.98, 2.41389E-10, 24134.3
DataValue, -0.96, 2.4126900000000003E-10, 24145.68
DataValue, -0.94000000000000006, 2.41103E-10, 24130.87
DataValue, -0.92, 2.4100500000000004E-10, 24137.38
DataValue, -0.9, 2.4088500000000004E-10, 24116.07
DataValue, -0.88, 2.40755E-10, 24249.75
DataValue, -0.86, 2.40657E-10, 24275.49
DataValue, -0.84, 2.40543E-10, 24276.78
DataValue, -0.82000000000000006, 2.40429E-10, 24348.77
DataValue, -0.8, 2.40333E-10, 24265.45
DataValue, -0.78, 2.4021600000000004E-10, 24224.04
DataValue, -0.76, 2.40121E-10, 24310.32
DataValue, -0.74, 2.39991E-10, 24303.12
DataValue, -0.72, 2.39958E-10, 24303.850000000002
DataValue, -0.70000000000000007, 2.39798E-10, 24399.010000000002
DataValue, -0.68, 2.39738E-10, 24449.49
DataValue, -0.66, 2.3964200000000003E-10, 24413.05
DataValue, -0.64, 2.39525E-10, 24437.4
DataValue, -0.62, 2.3943800000000004E-10, 24520.75
DataValue, -0.6, 2.3937700000000003E-10, 24471.58
DataValue, -0.58, 2.39255E-10, 24511.91
DataValue, -0.56, 2.39151E-10, 24428.59
DataValue, -0.54, 2.39092E-10, 24538.99
DataValue, -0.52, 2.38972E-10, 24617.88
DataValue, -0.5, 2.3891E-10, 24591.39
DataValue, -0.48, 2.38856E-10, 24699.87
DataValue, -0.46, 2.38784E-10, 24624.24
DataValue, -0.44, 2.3866700000000004E-10, 24742.38
DataValue, -0.42, 2.38553E-10, 24765.95
DataValue, -0.4, 2.3850900000000003E-10, 24808.170000000002
DataValue, -0.38, 2.38418E-10, 24923.36
DataValue, -0.36, 2.38327E-10, 24889.5
DataValue, -0.34, 2.38279E-10, 24878.71
DataValue, -0.32, 2.3818400000000003E-10, 24946.25
DataValue, -0.3, 2.38127E-10, 24927.75
DataValue, -0.28, 2.3806E-10, 24928.53
DataValue, -0.26, 2.37971E-10, 25070.05
DataValue, -0.24, 2.3790200000000004E-10, 25093.28
DataValue, -0.22, 2.37807E-10, 25154.8
DataValue, -0.2, 2.37761E-10, 25222.58
DataValue, -0.18, 2.37688E-10, 25278.22
DataValue, -0.16, 2.37589E-10, 25330.37
DataValue, -0.14, 2.37573E-10, 25306.66
DataValue, -0.12, 2.37524E-10, 25437.72
DataValue, -0.1, 2.3745000000000004E-10, 25416.36
DataValue, -0.08, 2.3736400000000003E-10, 25504.03
DataValue, -0.06, 2.37308E-10, 25507.48
DataValue, -0.04, 2.3723900000000004E-10, 25497.71
DataValue, -0.02, 2.3716500000000003E-10, 25594.02
DataValue, 0, 2.37146E-10, 25683.11
DataValue, 0.02, 2.37065E-10, 25620.52
DataValue, 0.04, 2.3702E-10, 25663.83
DataValue, 0.06, 2.36962E-10, 25819.66
DataValue, 0.08, 2.3691900000000004E-10, 25848.83
DataValue, 0.1, 2.36861E-10, 25848.13
DataValue, 0.12, 2.3681000000000003E-10, 25864.12
DataValue, 0.14, 2.3676100000000003E-10, 26019.57
DataValue, 0.16, 2.36718E-10, 25971.48
DataValue, 0.18, 2.36681E-10, 26054.850000000002
DataValue, 0.2, 2.3661E-10, 26124.37
DataValue, 0.22, 2.36567E-10, 26212.3
DataValue, 0.24, 2.3653900000000003E-10, 26239.56
DataValue, 0.26, 2.36488E-10, 26287.56
DataValue, 0.28, 2.36468E-10, 26266.38
DataValue, 0.3, 2.36438E-10, 26349.33
DataValue, 0.32, 2.3637000000000003E-10, 26293.77
DataValue, 0.34, 2.36339E-10, 26442.71
DataValue, 0.36, 2.3632100000000003E-10, 26518.850000000002
DataValue, 0.38, 2.36276E-10, 26686.12
DataValue, 0.4, 2.3621E-10, 26648.21
DataValue, 0.42, 2.36203E-10, 26779.82
DataValue, 0.44, 2.36198E-10, 26798.760000000002
DataValue, 0.46, 2.3612900000000003E-10, 26946.75
DataValue, 0.48, 2.36132E-10, 26961.48
DataValue, 0.5, 2.3604E-10, 26930
DataValue, 0.52, 2.36055E-10, 27038.47
DataValue, 0.54, 2.3603200000000003E-10, 27119.82
DataValue, 0.56, 2.36011E-10, 27216.47
DataValue, 0.58, 2.3598400000000003E-10, 27194.81
DataValue, 0.6, 2.3594800000000003E-10, 27328.66
DataValue, 0.62, 2.35934E-10, 27311.31
DataValue, 0.64, 2.3592E-10, 27334.39
DataValue, 0.66, 2.35886E-10, 27428.34
DataValue, 0.68, 2.35892E-10, 27603.170000000002
DataValue, 0.70000000000000007, 2.3584700000000004E-10, 27619.14
DataValue, 0.72, 2.3583E-10, 27680.86
DataValue, 0.74, 2.3585100000000003E-10, 27744.82
DataValue, 0.76, 2.35849E-10, 27820.99
DataValue, 0.78, 2.3581500000000003E-10, 27830.49
DataValue, 0.8, 2.3582100000000003E-10, 27963.670000000002
DataValue, 0.82000000000000006, 2.35825E-10, 28064.83
DataValue, 0.84, 2.35814E-10, 28060.41
DataValue, 0.86, 2.35826E-10, 28277.56
DataValue, 0.88, 2.35805E-10, 28351.25
DataValue, 0.9, 2.35793E-10, 28416.100000000002
DataValue, 0.92, 2.35808E-10, 28456.62
DataValue, 0.94000000000000006, 2.3578600000000004E-10, 28511.64
DataValue, 0.96, 2.35784E-10, 28639.48
DataValue, 0.98, 2.35781E-10, 28655.03
DataValue, 1, 2.3579200000000004E-10, 28718.77
DataValue, 1, 2.35793E-10, 28755.82
DataValue, 0.98, 2.35823E-10, 28674.39
DataValue, 0.96, 2.35778E-10, 28546.14
DataValue, 0.94000000000000006, 2.3575000000000004E-10, 28558.420000000002
DataValue, 0.92, 2.35788E-10, 28480.88
DataValue, 0.9, 2.35788E-10, 28333.53
DataValue, 0.88, 2.35776E-10, 28321.96
DataValue, 0.86, 2.35801E-10, 28206.510000000002
DataValue, 0.84, 2.35745E-10, 28052.12
DataValue, 0.82000000000000006, 2.3574E-10, 28038.47
DataValue, 0.8, 2.3578500000000003E-10, 28019.13
DataValue, 0.78, 2.35788E-10, 27788.96
DataValue, 0.76, 2.35799E-10, 27847.74
DataValue, 0.74, 2.35789E-10, 27697.62
DataValue, 0.72, 2.3582100000000003E-10, 27598.46
DataValue, 0.70000000000000007, 2.35817E-10, 27511.920000000002
DataValue, 0.68, 2.35842E-10, 27518.2
DataValue, 0.66, 2.3588300000000004E-10, 27359.14
DataValue, 0.64, 2.35905E-10, 27354.49
DataValue, 0.62, 2.35892E-10, 27273.56
DataValue, 0.6, 2.35932E-10, 27222.12
DataValue, 0.58, 2.35941E-10, 27153.06
DataValue, 0.56, 2.3599700000000004E-10, 27125.79
DataValue, 0.54, 2.3599000000000003E-10, 27013.13
DataValue, 0.52, 2.36055E-10, 26907.24
DataValue, 0.5, 2.3606300000000004E-10, 26959.23
DataValue, 0.48, 2.36066E-10, 26868.81
DataValue, 0.46, 2.36126E-10, 26800.68
DataValue, 0.44, 2.36158E-10, 26770.71
DataValue, 0.42, 2.36193E-10, 26666.2
DataValue, 0.4, 2.36242E-10, 26569.77
DataValue, 0.38, 2.36253E-10, 26554.940000000002
DataValue, 0.36, 2.36312E-10, 26495.78
DataValue, 0.34, 2.3634700000000004E-10, 26416.86
DataValue, 0.32, 2.36391E-10, 26271.56
DataValue, 0.3, 2.36404E-10, 26327.49
DataValue, 0.28, 2.36441E-10, 26312.72
DataValue, 0.26, 2.3650300000000004E-10, 26219.14
DataValue, 0.24, 2.3653900000000003E-10, 26246.71
DataValue, 0.22, 2.36608E-10, 26107.440000000002
DataValue, 0.2, 2.36655E-10, 26035.08
DataValue, 0.18, 2.3669000000000004E-10, 25961.07
DataValue, 0.16, 2.3676200000000004E-10, 25925.9
DataValue, 0.14, 2.36796E-10, 25942.850000000002
DataValue, 0.12, 2.3683E-10, 25872.71
DataValue, 0.1, 2.36892E-10, 25821.8
DataValue, 0.08, 2.3696100000000004E-10, 25795.350000000002
DataValue, 0.06, 2.3699800000000004E-10, 25740.7
DataValue, 0.04, 2.3705800000000004E-10, 25671.62
DataValue, 0.02, 2.37133E-10, 25627.08
DataValue, 0, 2.3718400000000004E-10, 25644.36
DataValue, -0.02, 2.37234E-10, 25512.05
DataValue, -0.04, 2.3729E-10, 25533.4
DataValue, -0.06, 2.37349E-10, 25452.53
DataValue, -0.08, 2.37402E-10, 25376.54
DataValue, -0.1, 2.37495E-10, 25450.56
DataValue, -0.12, 2.3754500000000003E-10, 25326.920000000002
DataValue, -0.14, 2.3764100000000003E-10, 25305.75
DataValue, -0.16, 2.37656E-10, 25299.420000000002
DataValue, -0.18, 2.37788E-10, 25191.22
DataValue, -0.2, 2.37818E-10, 25219.39
DataValue, -0.22, 2.37893E-10, 25176.760000000002
DataValue, -0.24, 2.37966E-10, 25150.66
DataValue, -0.26, 2.3804600000000004E-10, 25044.510000000002
DataValue, -0.28, 2.38151E-10, 25063.440000000002
DataValue, -0.3, 2.38207E-10, 24929.45
DataValue, -0.32, 2.38288E-10, 24985.66
DataValue, -0.34, 2.38351E-10, 24890.02
DataValue, -0.36, 2.3841400000000004E-10, 24915.48
DataValue, -0.38, 2.3845500000000003E-10, 24859.2
DataValue, -0.4, 2.3856400000000004E-10, 24838.45
DataValue, -0.42, 2.3865E-10, 24870.23
DataValue, -0.44, 2.38717E-10, 24729.59
DataValue, -0.46, 2.38815E-10, 24660.46
DataValue, -0.48, 2.38899E-10, 24648.190000000002
DataValue, -0.5, 2.3895000000000004E-10, 24653.28
DataValue, -0.52, 2.39032E-10, 24645.05
DataValue, -0.54, 2.3912E-10, 24580.56
DataValue, -0.56, 2.3920800000000003E-10, 24626.100000000002
DataValue, -0.58, 2.39283E-10, 24615.33
DataValue, -0.6, 2.3939500000000003E-10, 24473.850000000002
DataValue, -0.62, 2.395E-10, 24456.18
DataValue, -0.64, 2.39532E-10, 24482.49
DataValue, -0.66, 2.3963000000000003E-10, 24294.99
DataValue, -0.68, 2.39725E-10, 24376.96
DataValue, -0.70000000000000007, 2.39801E-10, 24349.45
DataValue, -0.72, 2.39905E-10, 24376.74
DataValue, -0.74, 2.39973E-10, 24339.79
DataValue, -0.76, 2.40098E-10, 24424.99
DataValue, -0.78, 2.40159E-10, 24214.04
DataValue, -0.8, 2.40242E-10, 24125.02
DataValue, -0.82000000000000006, 2.4034E-10, 24199.22
DataValue, -0.84, 2.4044500000000004E-10, 24181.78
DataValue, -0.86, 2.40531E-10, 24182.59
DataValue, -0.88, 2.4060800000000004E-10, 24187.100000000002
DataValue, -0.9, 2.40725E-10, 24096.39
DataValue, -0.92, 2.4081800000000004E-10, 24090.34
DataValue, -0.94000000000000006, 2.40916E-10, 24094.13
DataValue, -0.96, 2.4099300000000004E-10, 24136.45
DataValue, -0.98, 2.4106400000000003E-10, 23975.55
DataValue, -1, 2.41158E-10, 24046.16
DataValue, -1, 2.2345100000000002E-10, 6267.367
DataValue, -0.98, 2.2330100000000003E-10, 6278.2260000000006
DataValue, -0.96, 2.2320100000000002E-10, 6285.691
DataValue, -0.94000000000000006, 2.23103E-10, 6280.743
DataValue, -0.92, 2.2312800000000002E-10, 6277.307
DataValue, -0.9, 2.2295900000000002E-10, 6280.028
DataValue, -0.88, 2.2295300000000002E-10, 6296.289
DataValue, -0.86, 2.2278500000000002E-10, 6290.277
DataValue, -0.84, 2.22467E-10, 6320.613
DataValue, -0.82000000000000006, 2.2262300000000003E-10, 6306.8600000000006
DataValue, -0.8, 2.2248000000000002E-10, 6311.622
DataValue, -0.78, 2.2224600000000003E-10, 6330.024
DataValue, -0.76, 2.2216200000000003E-10, 6336.927
DataValue, -0.74, 2.22051E-10, 6343.474
DataValue, -0.72, 2.2185900000000001E-10, 6349.425
DataValue, -0.70000000000000007, 2.2193600000000003E-10, 6339.128
DataValue, -0.68, 2.2168600000000003E-10, 6375.009
DataValue, -0.66, 2.2157300000000002E-10, 6363.229
DataValue, -0.64, 2.2153700000000002E-10, 6372.695
DataValue, -0.62, 2.2138400000000002E-10, 6371.152
DataValue, -0.6, 2.2135900000000002E-10, 6377.731
DataValue, -0.58, 2.21132E-10, 6398.466
DataValue, -0.56, 2.2119900000000001E-10, 6395.644
DataValue, -0.54, 2.2094100000000002E-10, 6425.432
DataValue, -0.52, 2.2086200000000002E-10, 6417.0920000000006
DataValue, -0.5, 2.2100800000000003E-10, 6393.142
DataValue, -0.48, 2.2077500000000002E-10, 6421.477
DataValue, -0.46, 2.2078400000000002E-10, 6403.151
DataValue, -0.44, 2.20668E-10, 6421.164
DataValue, -0.42, 2.20442E-10, 6448.886
DataValue, -0.4, 2.2036200000000002E-10, 6453.669
DataValue, -0.38, 2.2025300000000002E-10, 6453.064
DataValue, -0.36, 2.2024700000000002E-10, 6454.359
DataValue, -0.34, 2.2020800000000002E-10, 6445.3820000000005
DataValue, -0.32, 2.19999E-10, 6487.031
DataValue, -0.3, 2.1984600000000001E-10, 6467.798
DataValue, -0.28, 2.1989200000000002E-10, 6484.633
DataValue, -0.26, 2.19761E-10, 6498.716
DataValue, -0.24, 2.19689E-10, 6492.607
DataValue, -0.22, 2.1952200000000003E-10, 6540.099
DataValue, -0.2, 2.1963300000000002E-10, 6492.14
DataValue, -0.18, 2.1942500000000002E-10, 6523.377
DataValue, -0.16, 2.19333E-10, 6507.57
DataValue, -0.14, 2.1938200000000001E-10, 6524.28
DataValue, -0.12, 2.1934100000000002E-10, 6509.88
DataValue, -0.1, 2.1903700000000003E-10, 6552.203
DataValue, -0.08, 2.1906900000000002E-10, 6550.4580000000005
DataValue, -0.06, 2.1895900000000003E-10, 6563.106
DataValue, -0.04, 2.1884600000000002E-10, 6567.036
DataValue, -0.02, 2.1876300000000003E-10, 6569.995
DataValue, 0, 2.18619E-10, 6596.347
DataValue, 0.02, 2.1868400000000002E-10, 6570.501
DataValue, 0.04, 2.18499E-10, 6592.662
DataValue, 0.06, 2.1852400000000002E-10, 6568
DataValue, 0.08, 2.1852800000000003E-10, 6596.714
DataValue, 0.1, 2.18324E-10, 6628.502
DataValue, 0.12, 2.1819800000000002E-10, 6615.119
DataValue, 0.14, 2.1826E-10, 6618.385
DataValue, 0.16, 2.1817E-10, 6625.852
DataValue, 0.18, 2.1794000000000003E-10, 6647.0430000000006
DataValue, 0.2, 2.1793400000000003E-10, 6658.019
DataValue, 0.22, 2.1775200000000002E-10, 6689.53
DataValue, 0.24, 2.1782200000000002E-10, 6676.393
DataValue, 0.26, 2.1784600000000002E-10, 6636.884
DataValue, 0.28, 2.1780000000000001E-10, 6682.562
DataValue, 0.3, 2.1753800000000001E-10, 6687.947
DataValue, 0.32, 2.17492E-10, 6697.4710000000005
DataValue, 0.34, 2.17528E-10, 6682.992
DataValue, 0.36, 2.1753800000000001E-10, 6699.929
DataValue, 0.38, 2.1733100000000002E-10, 6737.244
DataValue, 0.4, 2.1722500000000002E-10, 6748.468
DataValue, 0.42, 2.1728900000000002E-10, 6725.8550000000005
DataValue, 0.44, 2.17185E-10, 6748.012
DataValue, 0.46, 2.1703900000000003E-10, 6759.232
DataValue, 0.48, 2.1703600000000003E-10, 6769.6410000000005
DataValue, 0.5, 2.1707800000000002E-10, 6735.3
DataValue, 0.52, 2.1682200000000002E-10, 6791.263
DataValue, 0.54, 2.16911E-10, 6781.311
DataValue, 0.56, 2.1679100000000002E-10, 6794.363
DataValue, 0.58, 2.1682400000000002E-10, 6787.899
DataValue, 0.6, 2.167E-10, 6814.1630000000005
DataValue, 0.62, 2.1668700000000003E-10, 6800.216
DataValue, 0.64, 2.1667E-10, 6825.113
DataValue, 0.66, 2.1653800000000002E-10, 6835.743
DataValue, 0.68, 2.1653300000000003E-10, 6825.182
DataValue, 0.70000000000000007, 2.1649000000000002E-10, 6818.3600000000006
DataValue, 0.72, 2.1630300000000002E-10, 6879.706
DataValue, 0.74, 2.1642000000000001E-10, 6857.276
DataValue, 0.76, 2.1622200000000002E-10, 6909.066
DataValue, 0.78, 2.1632700000000002E-10, 6887.162
DataValue, 0.8, 2.1611100000000003E-10, 6923.6770000000006
DataValue, 0.82000000000000006, 2.1610700000000002E-10, 6921.809
DataValue, 0.84, 2.16076E-10, 6906.361
DataValue, 0.86, 2.15943E-10, 6931.224
DataValue, 0.88, 2.15964E-10, 6930.162
