
SetupTitle, C-V Sweep
PrimitiveTest, C-V Sweep
TestParameter, Channel.UnitTyp, CMU
TestParameter, Channel.Unit, CMU1:MF/SC
TestParameter, Channel.IName, 
TestParameter, Channel.VName, VBias
TestParameter, Channel.Mode, 
TestParameter, Channel.Func, VAR1
TestParameter, Channel.Index, 
TestParameter, Channel.Time, 
TestParameter, Measurement.Primary.Locus, Double
TestParameter, Measurement.Primary.Scale, LINEAR
TestParameter, Measurement.Primary.Start, -1
TestParameter, Measurement.Primary.Stop, 1
TestParameter, Measurement.Primary.Step, 0.02
TestParameter, Measurement.Aborting.Condition, CONTINUE AT ANY
TestParameter, Measurement.PostOutput.Value, START
TestParameter, Measurement.PostOutput.Retention, OFF
TestParameter, Measurement.Secondary.ACLevel, 0.05
TestParameter, Measurement.Secondary.FName, Freq
TestParameter, Measurement.Secondary.Frequency, 1000, 10000, 100000, 1000000
TestParameter, Measurement.Bias.Source, 0
TestParameter, Measurement.ImpedanceMode.Model, Cs-Rs
TestParameter, Measurement.ImpedanceMode.CName, C
TestParameter, Measurement.ImpedanceMode.LName, L
TestParameter, Measurement.ImpedanceMode.GName, G
TestParameter, Measurement.ImpedanceMode.RName, R
TestParameter, Measurement.ImpedanceMode.QName, Q
TestParameter, Measurement.ImpedanceMode.DName, D
TestParameter, Measurement.ImpedanceMode.YName, Y
TestParameter, Measurement.ImpedanceMode.ZName, Z
TestParameter, Measurement.ImpedanceMode.ThName, Theta
TestParameter, Measurement.ImpedanceMode.BName, B
TestParameter, Measurement.ImpedanceMode.XName, X
TestParameter, Measurement.Monitor.Unit, CMU1:MF/SC
TestParameter, Measurement.Monitor.RangingMode, AUTO
TestParameter, Measurement.Monitor.RangeBoundary, 50
TestParameter, Measurement.Monitor.AcMonitorSymbol, 
TestParameter, Measurement.Monitor.DcMonitorSymbol, 
TestParameter, Measurement.Timing.Hold, 0
TestParameter, Measurement.Timing.Delay, 0
TestParameter, Measurement.Adc.UnitType, Cmu, Smu
TestParameter, Measurement.Adc.HighResolution.Mode, AUTO, AUTO
TestParameter, Measurement.Adc.HighResolution.Coeff, 2, 6
TestParameter, Measurement.WaitTime.Source.Coeff, 1
TestParameter, Measurement.WaitTime.Source.Offset, 0
TestParameter, Measurement.WaitTime.Monitor.Coeff, 1
TestParameter, Measurement.WaitTime.Monitor.Offset, 0
TestParameter, Output.Graph.Enabled, true
TestParameter, Output.Graph.AutoScaling, false
TestParameter, Output.Graph.XAxis.Data, VBias
TestParameter, Output.Graph.XAxis.Scale, Linear
TestParameter, Output.Graph.XAxis.Left, -0.1
TestParameter, Output.Graph.XAxis.Right, 0.1
TestParameter, Output.Graph.XAxis.RunTimeAutoScale, true
TestParameter, Output.Graph.YAxis.Data, C, R
TestParameter, Output.Graph.YAxis.Scale, Linear, Linear
TestParameter, Output.Graph.YAxis.Bottom, 0, 0
TestParameter, Output.Graph.YAxis.Top, 1E-10, 10000
TestParameter, Output.Graph.YAxis.Group, , 
TestParameter, Output.Graph.YAxis.RunTimeAutoScale, true, true
TestParameter, AutoAnalysis.Interpolation, false
TestParameter, AutoAnalysis.Line1.Enabled, false
TestParameter, AutoAnalysis.Line1.Type, 1
TestParameter, AutoAnalysis.Line1.Fix, True
TestParameter, AutoAnalysis.Line1.YAxis, 0
TestParameter, AutoAnalysis.Line1.Point1.Type, 0
TestParameter, AutoAnalysis.Line1.Point1.XY.X, 
TestParameter, AutoAnalysis.Line1.Point1.XY.Y, 
TestParameter, AutoAnalysis.Line1.Point1.Data.Var, 
TestParameter, AutoAnalysis.Line1.Point1.Data.Condition, 
TestParameter, AutoAnalysis.Line1.Point1.Data.Start, false
TestParameter, AutoAnalysis.Line1.Point1.Data.StartVar, 
TestParameter, AutoAnalysis.Line1.Point1.Data.StartCondition, 
TestParameter, AutoAnalysis.Line1.Point2.Type, 0
TestParameter, AutoAnalysis.Line1.Point2.XY.X, 
TestParameter, AutoAnalysis.Line1.Point2.XY.Y, 
TestParameter, AutoAnalysis.Line1.Point2.Data.Var, 
TestParameter, AutoAnalysis.Line1.Point2.Data.Condition, 
TestParameter, AutoAnalysis.Line1.Point2.Data.Start, false
TestParameter, AutoAnalysis.Line1.Point2.Data.StartVar, 
TestParameter, AutoAnalysis.Line1.Point2.Data.StartCondition, 
TestParameter, AutoAnalysis.Line1.GradientExpr, 0
TestParameter, AutoAnalysis.Line2.Enabled, false
TestParameter, AutoAnalysis.Line2.Type, 1
TestParameter, AutoAnalysis.Line2.Fix, True
TestParameter, AutoAnalysis.Line2.YAxis, 0
TestParameter, AutoAnalysis.Line2.Point1.Type, 0
TestParameter, AutoAnalysis.Line2.Point1.XY.X, 
TestParameter, AutoAnalysis.Line2.Point1.XY.Y, 
TestParameter, AutoAnalysis.Line2.Point1.Data.Var, 
TestParameter, AutoAnalysis.Line2.Point1.Data.Condition, 
TestParameter, AutoAnalysis.Line2.Point1.Data.Start, false
TestParameter, AutoAnalysis.Line2.Point1.Data.StartVar, 
TestParameter, AutoAnalysis.Line2.Point1.Data.StartCondition, 
TestParameter, AutoAnalysis.Line2.Point2.Type, 0
TestParameter, AutoAnalysis.Line2.Point2.XY.X, 
TestParameter, AutoAnalysis.Line2.Point2.XY.Y, 
TestParameter, AutoAnalysis.Line2.Point2.Data.Var, 
TestParameter, AutoAnalysis.Line2.Point2.Data.Condition, 
TestParameter, AutoAnalysis.Line2.Point2.Data.Start, false
TestParameter, AutoAnalysis.Line2.Point2.Data.StartVar, 
TestParameter, AutoAnalysis.Line2.Point2.Data.StartCondition, 
TestParameter, AutoAnalysis.Line2.GradientExpr, 0
TestParameter, AutoAnalysis.Marker.Enabled, false
TestParameter, AutoAnalysis.Marker.Data.Var, 
TestParameter, AutoAnalysis.Marker.Data.Condition, 
TestParameter, AutoAnalysis.Marker.Data.Start, false
TestParameter, AutoAnalysis.Marker.Data.StartVar, 
TestParameter, AutoAnalysis.Marker.Data.StartCondition, 
MetaData, TestRecord.EntryPoint, true
MetaData, TestRecord.RecordTime, 11/25/2019 20:38:34
MetaData, TestRecord.TestTarget, Al2O3_0.5_10
MetaData, TestRecord.IterationIndex, 2
MetaData, TestRecord.Preservation, true
MetaData, TestRecord.Flag, 
MetaData, TestRecord.Remarks, 
MetaData, TestRecord.LinkKey, bff5dc62-fdd8-40db-ae2a-402bc882e82a
Dimension1, 202, 202, 202
Dimension2, 4, 4, 4
DataName, VBias, C, R
DataValue, -1, 1.42657E-10, 4682.7
DataValue, -0.98, 1.42613E-10, 4690.814
DataValue, -0.96, 1.42531E-10, 4681.584
DataValue, -0.94000000000000006, 1.425E-10, 4872.74
DataValue, -0.92, 1.4245400000000002E-10, 4733.8150000000005
DataValue, -0.9, 1.4236400000000002E-10, 4873.384
DataValue, -0.88, 1.42329E-10, 4823.144
DataValue, -0.86, 1.4228200000000002E-10, 4422.325
DataValue, -0.84, 1.4224300000000002E-10, 4529.468
DataValue, -0.82000000000000006, 1.422E-10, 4476.718
DataValue, -0.8, 1.4216200000000002E-10, 4786.936
DataValue, -0.78, 1.4209300000000002E-10, 4464.558
DataValue, -0.76, 1.4204100000000002E-10, 4513.0070000000005
DataValue, -0.74, 1.41962E-10, 4769.011
DataValue, -0.72, 1.41968E-10, 4645.787
DataValue, -0.70000000000000007, 1.41916E-10, 4532.464
DataValue, -0.68, 1.4188700000000001E-10, 4616.053
DataValue, -0.66, 1.41841E-10, 4694.119
DataValue, -0.64, 1.4176400000000002E-10, 4469.572
DataValue, -0.62, 1.417E-10, 4542.103
DataValue, -0.6, 1.41706E-10, 4462.97
DataValue, -0.58, 1.41633E-10, 4598.34
DataValue, -0.56, 1.4158600000000002E-10, 4657.601
DataValue, -0.54, 1.41515E-10, 4611.789
DataValue, -0.52, 1.41513E-10, 4689.356
DataValue, -0.5, 1.4144400000000001E-10, 4536.43
DataValue, -0.48, 1.41392E-10, 4568.478
DataValue, -0.46, 1.41365E-10, 4452.662
DataValue, -0.44, 1.41301E-10, 4504.331
DataValue, -0.42, 1.4126700000000002E-10, 4337.545
DataValue, -0.4, 1.41193E-10, 4436.243
DataValue, -0.38, 1.4117700000000002E-10, 4481.463
DataValue, -0.36, 1.4111000000000002E-10, 4638.636
DataValue, -0.34, 1.41081E-10, 4583.445
DataValue, -0.32, 1.4106800000000002E-10, 4741.3
DataValue, -0.3, 1.40998E-10, 4646.046
DataValue, -0.28, 1.4095400000000002E-10, 4373.573
DataValue, -0.26, 1.40903E-10, 4368.173
DataValue, -0.24, 1.40859E-10, 4420.335
DataValue, -0.22, 1.40789E-10, 4359.035
DataValue, -0.2, 1.40756E-10, 4364.604
DataValue, -0.18, 1.40732E-10, 4384.652
DataValue, -0.16, 1.4069100000000002E-10, 4430.487
DataValue, -0.14, 1.40629E-10, 4396.942
DataValue, -0.12, 1.40606E-10, 4581.678
DataValue, -0.1, 1.40561E-10, 4451.17
DataValue, -0.08, 1.40512E-10, 4506.809
DataValue, -0.06, 1.4045900000000002E-10, 4430.116
DataValue, -0.04, 1.40403E-10, 4307.24
DataValue, -0.02, 1.40364E-10, 4666.294
DataValue, 0, 1.40313E-10, 4260.918
DataValue, 0.02, 1.4028700000000001E-10, 4624.145
DataValue, 0.04, 1.4026700000000002E-10, 4388.328
DataValue, 0.06, 1.40162E-10, 4521.1990000000005
DataValue, 0.08, 1.40141E-10, 4426.463
DataValue, 0.1, 1.40081E-10, 4449.019
DataValue, 0.12, 1.40048E-10, 4666.379
DataValue, 0.14, 1.4001600000000002E-10, 4466.78
DataValue, 0.16, 1.39955E-10, 4536.667
DataValue, 0.18, 1.3992900000000002E-10, 4336.118
DataValue, 0.2, 1.39891E-10, 4502.058
DataValue, 0.22, 1.3982900000000001E-10, 4484.128
DataValue, 0.24, 1.3977200000000002E-10, 4243.862
DataValue, 0.26, 1.39726E-10, 4577.146
DataValue, 0.28, 1.39701E-10, 4221.127
DataValue, 0.3, 1.3963100000000002E-10, 4460.267
DataValue, 0.32, 1.3962400000000001E-10, 4570.985
DataValue, 0.34, 1.3955200000000002E-10, 4282.332
DataValue, 0.36, 1.39524E-10, 4262.915
DataValue, 0.38, 1.39482E-10, 4055.942
DataValue, 0.4, 1.39437E-10, 4496.523
DataValue, 0.42, 1.39376E-10, 4471.486
DataValue, 0.44, 1.3935600000000002E-10, 4376.3820000000005
DataValue, 0.46, 1.39328E-10, 4488.063
DataValue, 0.48, 1.3927500000000002E-10, 4604.8910000000005
DataValue, 0.5, 1.3921E-10, 4408.918
DataValue, 0.52, 1.3915E-10, 4286.433
DataValue, 0.54, 1.3915800000000002E-10, 4396.6630000000005
DataValue, 0.56, 1.39096E-10, 4515.86
DataValue, 0.58, 1.39059E-10, 4475.552
DataValue, 0.6, 1.3902500000000002E-10, 4394.189
DataValue, 0.62, 1.3898300000000002E-10, 4975.561
DataValue, 0.64, 1.3894300000000001E-10, 4477.312
DataValue, 0.66, 1.3886200000000002E-10, 4379.466
DataValue, 0.68, 1.38866E-10, 4447.842
DataValue, 0.70000000000000007, 1.38789E-10, 4484.185
DataValue, 0.72, 1.38758E-10, 4615.598
DataValue, 0.74, 1.3869400000000002E-10, 4398.786
DataValue, 0.76, 1.38668E-10, 4499.322
DataValue, 0.78, 1.38644E-10, 4542.8240000000005
DataValue, 0.8, 1.3862E-10, 4745.028
DataValue, 0.82000000000000006, 1.3856100000000002E-10, 4506.857
DataValue, 0.84, 1.38493E-10, 4453.581
DataValue, 0.86, 1.3848000000000002E-10, 4410.291
DataValue, 0.88, 1.38418E-10, 4602.336
DataValue, 0.9, 1.3842E-10, 4459.054
DataValue, 0.92, 1.38351E-10, 4621.852
DataValue, 0.94000000000000006, 1.3832600000000002E-10, 4581.91
DataValue, 0.96, 1.38267E-10, 4468.182
DataValue, 0.98, 1.3822900000000002E-10, 4632.3820000000005
DataValue, 1, 1.3818700000000002E-10, 4426.4890000000005
DataValue, 1, 1.3817800000000002E-10, 4468.442
DataValue, 0.98, 1.3823200000000001E-10, 4784.6630000000005
DataValue, 0.96, 1.38283E-10, 4527.682
DataValue, 0.94000000000000006, 1.3828400000000002E-10, 4695.563
DataValue, 0.92, 1.38321E-10, 4619.374
DataValue, 0.9, 1.3840100000000002E-10, 4568.542
DataValue, 0.88, 1.38448E-10, 4495.608
DataValue, 0.86, 1.38426E-10, 4480.192
DataValue, 0.84, 1.3848500000000001E-10, 4452.746
DataValue, 0.82000000000000006, 1.38523E-10, 4398.679
DataValue, 0.8, 1.38575E-10, 4724.26
DataValue, 0.78, 1.3864200000000002E-10, 4495.032
DataValue, 0.76, 1.38677E-10, 4539.576
DataValue, 0.74, 1.38732E-10, 4326.5380000000005
DataValue, 0.72, 1.38752E-10, 4145.1720000000005
DataValue, 0.70000000000000007, 1.3879000000000002E-10, 4468.925
DataValue, 0.68, 1.3886500000000002E-10, 4372.514
DataValue, 0.66, 1.3888600000000002E-10, 4538.666
DataValue, 0.64, 1.3892300000000002E-10, 4381.088
DataValue, 0.62, 1.38964E-10, 4228.863
DataValue, 0.6, 1.39014E-10, 4431.86
DataValue, 0.58, 1.3903700000000002E-10, 4276.511
DataValue, 0.56, 1.39116E-10, 4446.3730000000005
DataValue, 0.54, 1.3913300000000002E-10, 4332.176
DataValue, 0.52, 1.3918800000000002E-10, 4615.313
DataValue, 0.5, 1.3924200000000002E-10, 4777.868
DataValue, 0.48, 1.39243E-10, 4221.275
DataValue, 0.46, 1.39288E-10, 4389.479
DataValue, 0.44, 1.39343E-10, 4414.527
DataValue, 0.42, 1.39397E-10, 4508.2210000000005
DataValue, 0.4, 1.39452E-10, 4269.911
DataValue, 0.38, 1.3949800000000002E-10, 4423.2750000000005
DataValue, 0.36, 1.39539E-10, 4402.842
DataValue, 0.34, 1.3953400000000002E-10, 4650.571
DataValue, 0.32, 1.3960600000000001E-10, 4491.849
DataValue, 0.3, 1.39657E-10, 4311.249
DataValue, 0.28, 1.39713E-10, 4477.951
DataValue, 0.26, 1.39761E-10, 4500.647
DataValue, 0.24, 1.3978700000000002E-10, 4427.119
DataValue, 0.22, 1.39834E-10, 4296.684
DataValue, 0.2, 1.39871E-10, 4472.955
DataValue, 0.18, 1.3992900000000002E-10, 4503.917
DataValue, 0.16, 1.3997E-10, 4253.664
DataValue, 0.14, 1.40014E-10, 4391.68
DataValue, 0.12, 1.4005600000000002E-10, 4439.8060000000005
DataValue, 0.1, 1.4009E-10, 4484.084
DataValue, 0.08, 1.4016E-10, 4477.805
DataValue, 0.06, 1.40169E-10, 4360.651
DataValue, 0.04, 1.40232E-10, 4223.633
DataValue, 0.02, 1.4029300000000001E-10, 4538.5740000000005
DataValue, 0, 1.40295E-10, 4588.59
DataValue, -0.02, 1.4035400000000002E-10, 4631.428
DataValue, -0.04, 1.40404E-10, 4428.746
DataValue, -0.06, 1.4043500000000002E-10, 4273.167
DataValue, -0.08, 1.4052500000000001E-10, 4544.185
DataValue, -0.1, 1.40536E-10, 4464.995
DataValue, -0.12, 1.4058600000000002E-10, 4514.252
DataValue, -0.14, 1.4065200000000002E-10, 4466.24
DataValue, -0.16, 1.40686E-10, 4260.42
DataValue, -0.18, 1.4073000000000001E-10, 4382.023
DataValue, -0.2, 1.40792E-10, 4528.7080000000005
DataValue, -0.22, 1.40808E-10, 4530.204
DataValue, -0.24, 1.40852E-10, 4438.842
DataValue, -0.26, 1.4090200000000002E-10, 4467.086
DataValue, -0.28, 1.4097500000000002E-10, 4139.549
DataValue, -0.3, 1.41001E-10, 4631.4580000000005
DataValue, -0.32, 1.41061E-10, 4369.716
DataValue, -0.34, 1.41088E-10, 4542.484
DataValue, -0.36, 1.41145E-10, 4275.825
DataValue, -0.38, 1.4121900000000002E-10, 4440.919
DataValue, -0.4, 1.4124900000000002E-10, 4275.061
DataValue, -0.42, 1.41275E-10, 4583.657
DataValue, -0.44, 1.41308E-10, 4520.27
DataValue, -0.46, 1.4137E-10, 4425.909
DataValue, -0.48, 1.4141700000000001E-10, 4512.798
DataValue, -0.5, 1.41494E-10, 4686.853
DataValue, -0.52, 1.41531E-10, 4604.754
DataValue, -0.54, 1.41572E-10, 4618.356
DataValue, -0.56, 1.4157100000000002E-10, 4648.0830000000005
DataValue, -0.58, 1.4165500000000001E-10, 4583.087
DataValue, -0.6, 1.4169E-10, 4508.366
DataValue, -0.62, 1.41748E-10, 4732.361
DataValue, -0.64, 1.4179400000000002E-10, 4650.964
DataValue, -0.66, 1.41826E-10, 4397.5960000000005
DataValue, -0.68, 1.4192E-10, 4324.537
DataValue, -0.70000000000000007, 1.4190300000000002E-10, 4566.557
DataValue, -0.72, 1.4195400000000002E-10, 4701.379
DataValue, -0.74, 1.41976E-10, 4530.851
DataValue, -0.76, 1.4203800000000002E-10, 4540.134
DataValue, -0.78, 1.4209000000000002E-10, 4640.028
DataValue, -0.8, 1.42157E-10, 4551.942
DataValue, -0.82000000000000006, 1.4219500000000002E-10, 4511.153
DataValue, -0.84, 1.4221000000000002E-10, 4553.483
DataValue, -0.86, 1.42305E-10, 4647.554
DataValue, -0.88, 1.4233300000000001E-10, 4586.834
DataValue, -0.9, 1.4236100000000002E-10, 4530.884
DataValue, -0.92, 1.4243600000000002E-10, 4563.543
DataValue, -0.94000000000000006, 1.42479E-10, 4786.9000000000005
DataValue, -0.96, 1.42519E-10, 4648.219
DataValue, -0.98, 1.4255000000000001E-10, 4728.176
DataValue, -1, 1.42597E-10, 4889.836
DataValue, -1, 1.4200800000000002E-10, 2350.477
DataValue, -0.98, 1.41992E-10, 2296.0750000000003
DataValue, -0.96, 1.41925E-10, 2328.471
DataValue, -0.94000000000000006, 1.4185400000000002E-10, 2354.3540000000003
DataValue, -0.92, 1.4177900000000002E-10, 2364.231
DataValue, -0.9, 1.4178200000000002E-10, 2309.142
DataValue, -0.88, 1.41726E-10, 2346.927
DataValue, -0.86, 1.4167700000000002E-10, 2345.484
DataValue, -0.84, 1.41618E-10, 2340.527
DataValue, -0.82000000000000006, 1.41612E-10, 2310.352
DataValue, -0.8, 1.41536E-10, 2373.962
DataValue, -0.78, 1.4150500000000002E-10, 2303.419
DataValue, -0.76, 1.41461E-10, 2332.439
DataValue, -0.74, 1.4142600000000001E-10, 2303.924
DataValue, -0.72, 1.4134800000000002E-10, 2343.467
DataValue, -0.70000000000000007, 1.4135100000000002E-10, 2298.327
DataValue, -0.68, 1.41265E-10, 2328.289
DataValue, -0.66, 1.41236E-10, 2309.57
DataValue, -0.64, 1.4119500000000002E-10, 2340.1240000000003
DataValue, -0.62, 1.41154E-10, 2319.7110000000002
DataValue, -0.6, 1.41067E-10, 2350.562
DataValue, -0.58, 1.4107700000000002E-10, 2306.5480000000002
DataValue, -0.56, 1.4096200000000001E-10, 2357.82
DataValue, -0.54, 1.40937E-10, 2366.568
DataValue, -0.52, 1.4089300000000002E-10, 2362.526
DataValue, -0.5, 1.40873E-10, 2332.5660000000003
DataValue, -0.48, 1.4085E-10, 2314.072
DataValue, -0.46, 1.40753E-10, 2331.3070000000002
DataValue, -0.44, 1.4072800000000002E-10, 2346.222
DataValue, -0.42, 1.40678E-10, 2328.808
DataValue, -0.4, 1.4060700000000002E-10, 2378.4790000000003
DataValue, -0.38, 1.4055900000000002E-10, 2369.467
DataValue, -0.36, 1.40542E-10, 2365.572
DataValue, -0.34, 1.4047700000000002E-10, 2374.4
DataValue, -0.32, 1.4045300000000002E-10, 2325.78
DataValue, -0.3, 1.40415E-10, 2329.217
DataValue, -0.28, 1.40371E-10, 2309.647
DataValue, -0.26, 1.40334E-10, 2321.381
DataValue, -0.24, 1.4027200000000002E-10, 2323.92
DataValue, -0.22, 1.4025E-10, 2328.92
DataValue, -0.2, 1.4019700000000002E-10, 2343.835
DataValue, -0.18, 1.40163E-10, 2338.594
DataValue, -0.16, 1.40097E-10, 2335.6240000000003
DataValue, -0.14, 1.40078E-10, 2311.072
DataValue, -0.12, 1.40006E-10, 2348.455
DataValue, -0.1, 1.39966E-10, 2346.527
DataValue, -0.08, 1.3991E-10, 2351.846
DataValue, -0.06, 1.39879E-10, 2341.599
DataValue, -0.04, 1.39825E-10, 2341.616
DataValue, -0.02, 1.3981500000000002E-10, 2304.36
DataValue, 0, 1.39732E-10, 2341.0950000000003
DataValue, 0.02, 1.39743E-10, 2316.116
DataValue, 0.04, 1.3965800000000002E-10, 2346.674
DataValue, 0.06, 1.3961900000000002E-10, 2349.3360000000002
DataValue, 0.08, 1.39563E-10, 2356.864
DataValue, 0.1, 1.39545E-10, 2325.1240000000003
DataValue, 0.12, 1.3950700000000002E-10, 2353.003
DataValue, 0.14, 1.39424E-10, 2368.701
DataValue, 0.16, 1.39412E-10, 2334.387
DataValue, 0.18, 1.39382E-10, 2307.326
DataValue, 0.2, 1.39352E-10, 2316.29
DataValue, 0.22, 1.39255E-10, 2340.76
DataValue, 0.24, 1.3920600000000002E-10, 2352.66
DataValue, 0.26, 1.3917000000000002E-10, 2360.767
DataValue, 0.28, 1.3912700000000002E-10, 2341.969
DataValue, 0.3, 1.39086E-10, 2346.927
DataValue, 0.32, 1.39072E-10, 2327.08
DataValue, 0.34, 1.38978E-10, 2343.623
DataValue, 0.36, 1.38982E-10, 2326.745
DataValue, 0.38, 1.3892000000000002E-10, 2344.716
DataValue, 0.4, 1.38845E-10, 2381.257
DataValue, 0.42, 1.38836E-10, 2347.833
DataValue, 0.44, 1.38782E-10, 2378.815
DataValue, 0.46, 1.38759E-10, 2314.563
DataValue, 0.48, 1.3870600000000002E-10, 2333.73
DataValue, 0.5, 1.38641E-10, 2367.435
DataValue, 0.52, 1.38602E-10, 2368.745
DataValue, 0.54, 1.3860600000000002E-10, 2318.299
DataValue, 0.56, 1.38536E-10, 2334.569
DataValue, 0.58, 1.3846700000000001E-10, 2350.998
DataValue, 0.6, 1.38421E-10, 2367.732
DataValue, 0.62, 1.38411E-10, 2338.011
DataValue, 0.64, 1.3836800000000002E-10, 2336.617
DataValue, 0.66, 1.38333E-10, 2338.977
DataValue, 0.68, 1.38313E-10, 2328.405
DataValue, 0.70000000000000007, 1.38261E-10, 2348.045
DataValue, 0.72, 1.38212E-10, 2330.318
DataValue, 0.74, 1.38171E-10, 2331.103
DataValue, 0.76, 1.3810600000000002E-10, 2366.627
DataValue, 0.78, 1.38069E-10, 2349.262
DataValue, 0.8, 1.3801000000000002E-10, 2375.988
DataValue, 0.82000000000000006, 1.37978E-10, 2362.279
DataValue, 0.84, 1.3793400000000002E-10, 2363.491
DataValue, 0.86, 1.37882E-10, 2373.9700000000003
DataValue, 0.88, 1.37875E-10, 2348.346
DataValue, 0.9, 1.3779000000000002E-10, 2380.871
DataValue, 0.92, 1.3777100000000002E-10, 2357.9120000000003
