
SetupTitle, C-V Sweep
PrimitiveTest, C-V Sweep
TestParameter, Channel.UnitTyp, CMU
TestParameter, Channel.Unit, CMU1:MF/SC
TestParameter, Channel.IName, 
TestParameter, Channel.VName, VBias
TestParameter, Channel.Mode, 
TestParameter, Channel.Func, VAR1
TestParameter, Channel.Index, 
TestParameter, Channel.Time, 
TestParameter, Measurement.Primary.Locus, Double
TestParameter, Measurement.Primary.Scale, LINEAR
TestParameter, Measurement.Primary.Start, -1
TestParameter, Measurement.Primary.Stop, 1
TestParameter, Measurement.Primary.Step, 0.02
TestParameter, Measurement.Aborting.Condition, CONTINUE AT ANY
TestParameter, Measurement.PostOutput.Value, START
TestParameter, Measurement.PostOutput.Retention, OFF
TestParameter, Measurement.Secondary.ACLevel, 0.05
TestParameter, Measurement.Secondary.FName, Freq
TestParameter, Measurement.Secondary.Frequency, 1000, 10000, 100000, 1000000
TestParameter, Measurement.Bias.Source, 0
TestParameter, Measurement.ImpedanceMode.Model, Cs-Rs
TestParameter, Measurement.ImpedanceMode.CName, C
TestParameter, Measurement.ImpedanceMode.LName, L
TestParameter, Measurement.ImpedanceMode.GName, G
TestParameter, Measurement.ImpedanceMode.RName, R
TestParameter, Measurement.ImpedanceMode.QName, Q
TestParameter, Measurement.ImpedanceMode.DName, D
TestParameter, Measurement.ImpedanceMode.YName, Y
TestParameter, Measurement.ImpedanceMode.ZName, Z
TestParameter, Measurement.ImpedanceMode.ThName, Theta
TestParameter, Measurement.ImpedanceMode.BName, B
TestParameter, Measurement.ImpedanceMode.XName, X
TestParameter, Measurement.Monitor.Unit, CMU1:MF/SC
TestParameter, Measurement.Monitor.RangingMode, AUTO
TestParameter, Measurement.Monitor.RangeBoundary, 50
TestParameter, Measurement.Monitor.AcMonitorSymbol, 
TestParameter, Measurement.Monitor.DcMonitorSymbol, 
TestParameter, Measurement.Timing.Hold, 0
TestParameter, Measurement.Timing.Delay, 0
TestParameter, Measurement.Adc.UnitType, Cmu, Smu
TestParameter, Measurement.Adc.HighResolution.Mode, AUTO, AUTO
TestParameter, Measurement.Adc.HighResolution.Coeff, 2, 6
TestParameter, Measurement.WaitTime.Source.Coeff, 1
TestParameter, Measurement.WaitTime.Source.Offset, 0
TestParameter, Measurement.WaitTime.Monitor.Coeff, 1
TestParameter, Measurement.WaitTime.Monitor.Offset, 0
TestParameter, Output.Graph.Enabled, true
TestParameter, Output.Graph.AutoScaling, false
TestParameter, Output.Graph.XAxis.Data, VBias
TestParameter, Output.Graph.XAxis.Scale, Linear
TestParameter, Output.Graph.XAxis.Left, -0.1
TestParameter, Output.Graph.XAxis.Right, 0.1
TestParameter, Output.Graph.XAxis.RunTimeAutoScale, true
TestParameter, Output.Graph.YAxis.Data, C, R
TestParameter, Output.Graph.YAxis.Scale, Linear, Linear
TestParameter, Output.Graph.YAxis.Bottom, 0, 0
TestParameter, Output.Graph.YAxis.Top, 1E-10, 10000
TestParameter, Output.Graph.YAxis.Group, , 
TestParameter, Output.Graph.YAxis.RunTimeAutoScale, true, true
TestParameter, AutoAnalysis.Interpolation, false
TestParameter, AutoAnalysis.Line1.Enabled, false
TestParameter, AutoAnalysis.Line1.Type, 1
TestParameter, AutoAnalysis.Line1.Fix, True
TestParameter, AutoAnalysis.Line1.YAxis, 0
TestParameter, AutoAnalysis.Line1.Point1.Type, 0
TestParameter, AutoAnalysis.Line1.Point1.XY.X, 
TestParameter, AutoAnalysis.Line1.Point1.XY.Y, 
TestParameter, AutoAnalysis.Line1.Point1.Data.Var, 
TestParameter, AutoAnalysis.Line1.Point1.Data.Condition, 
TestParameter, AutoAnalysis.Line1.Point1.Data.Start, false
TestParameter, AutoAnalysis.Line1.Point1.Data.StartVar, 
TestParameter, AutoAnalysis.Line1.Point1.Data.StartCondition, 
TestParameter, AutoAnalysis.Line1.Point2.Type, 0
TestParameter, AutoAnalysis.Line1.Point2.XY.X, 
TestParameter, AutoAnalysis.Line1.Point2.XY.Y, 
TestParameter, AutoAnalysis.Line1.Point2.Data.Var, 
TestParameter, AutoAnalysis.Line1.Point2.Data.Condition, 
TestParameter, AutoAnalysis.Line1.Point2.Data.Start, false
TestParameter, AutoAnalysis.Line1.Point2.Data.StartVar, 
TestParameter, AutoAnalysis.Line1.Point2.Data.StartCondition, 
TestParameter, AutoAnalysis.Line1.GradientExpr, 0
TestParameter, AutoAnalysis.Line2.Enabled, false
TestParameter, AutoAnalysis.Line2.Type, 1
TestParameter, AutoAnalysis.Line2.Fix, True
TestParameter, AutoAnalysis.Line2.YAxis, 0
TestParameter, AutoAnalysis.Line2.Point1.Type, 0
TestParameter, AutoAnalysis.Line2.Point1.XY.X, 
TestParameter, AutoAnalysis.Line2.Point1.XY.Y, 
TestParameter, AutoAnalysis.Line2.Point1.Data.Var, 
TestParameter, AutoAnalysis.Line2.Point1.Data.Condition, 
TestParameter, AutoAnalysis.Line2.Point1.Data.Start, false
TestParameter, AutoAnalysis.Line2.Point1.Data.StartVar, 
TestParameter, AutoAnalysis.Line2.Point1.Data.StartCondition, 
TestParameter, AutoAnalysis.Line2.Point2.Type, 0
TestParameter, AutoAnalysis.Line2.Point2.XY.X, 
TestParameter, AutoAnalysis.Line2.Point2.XY.Y, 
TestParameter, AutoAnalysis.Line2.Point2.Data.Var, 
TestParameter, AutoAnalysis.Line2.Point2.Data.Condition, 
TestParameter, AutoAnalysis.Line2.Point2.Data.Start, false
TestParameter, AutoAnalysis.Line2.Point2.Data.StartVar, 
TestParameter, AutoAnalysis.Line2.Point2.Data.StartCondition, 
TestParameter, AutoAnalysis.Line2.GradientExpr, 0
TestParameter, AutoAnalysis.Marker.Enabled, false
TestParameter, AutoAnalysis.Marker.Data.Var, 
TestParameter, AutoAnalysis.Marker.Data.Condition, 
TestParameter, AutoAnalysis.Marker.Data.Start, false
TestParameter, AutoAnalysis.Marker.Data.StartVar, 
TestParameter, AutoAnalysis.Marker.Data.StartCondition, 
MetaData, TestRecord.EntryPoint, true
MetaData, TestRecord.RecordTime, 11/25/2019 20:39:44
MetaData, TestRecord.TestTarget, Al2O3_0.5_10
MetaData, TestRecord.IterationIndex, 3
MetaData, TestRecord.Preservation, true
MetaData, TestRecord.Flag, 
MetaData, TestRecord.Remarks, 
MetaData, TestRecord.LinkKey, e7394937-43f4-4451-a9c7-e00f8bb54725
Dimension1, 202, 202, 202
Dimension2, 4, 4, 4
DataName, VBias, C, R
DataValue, -1, 1.43987E-10, 4542.658
DataValue, -0.98, 1.43962E-10, 4801.186
DataValue, -0.96, 1.43929E-10, 4823.796
DataValue, -0.94000000000000006, 1.43863E-10, 4736.81
DataValue, -0.92, 1.438E-10, 4770.4490000000005
DataValue, -0.9, 1.43751E-10, 4603.201
DataValue, -0.88, 1.43728E-10, 4748.872
DataValue, -0.86, 1.4365300000000002E-10, 4672.439
DataValue, -0.84, 1.4360200000000002E-10, 4649.41
DataValue, -0.82000000000000006, 1.43541E-10, 4677.79
DataValue, -0.8, 1.43511E-10, 4522.336
DataValue, -0.78, 1.4344800000000002E-10, 4767.2880000000005
DataValue, -0.76, 1.4340600000000002E-10, 4608.546
DataValue, -0.74, 1.43387E-10, 4515.014
DataValue, -0.72, 1.43353E-10, 4656.031
DataValue, -0.70000000000000007, 1.4327700000000002E-10, 4640.402
DataValue, -0.68, 1.4321900000000002E-10, 4764.171
DataValue, -0.66, 1.4318300000000002E-10, 4366.64
DataValue, -0.64, 1.43136E-10, 4592.134
DataValue, -0.62, 1.43082E-10, 4678.446
DataValue, -0.6, 1.43074E-10, 4487.186
DataValue, -0.58, 1.4298100000000002E-10, 4339.676
DataValue, -0.56, 1.4293600000000002E-10, 4500.081
DataValue, -0.54, 1.4290300000000002E-10, 4673.93
DataValue, -0.52, 1.4284900000000002E-10, 4496.4490000000005
DataValue, -0.5, 1.4284000000000002E-10, 4504.386
DataValue, -0.48, 1.4275800000000002E-10, 4613.055
DataValue, -0.46, 1.42718E-10, 4594.67
DataValue, -0.44, 1.4267400000000002E-10, 4655.616
DataValue, -0.42, 1.4262000000000002E-10, 4612.137
DataValue, -0.4, 1.4259000000000002E-10, 4546.488
DataValue, -0.38, 1.4253000000000002E-10, 4437.115
DataValue, -0.36, 1.4248700000000002E-10, 4451.993
DataValue, -0.34, 1.4247200000000002E-10, 4204.446
DataValue, -0.32, 1.42386E-10, 4394.733
DataValue, -0.3, 1.4236000000000001E-10, 4479.064
DataValue, -0.28, 1.4231600000000002E-10, 4391.371
DataValue, -0.26, 1.42283E-10, 4348.956
DataValue, -0.24, 1.42211E-10, 4461.374
DataValue, -0.22, 1.4215900000000002E-10, 4409.344
DataValue, -0.2, 1.42127E-10, 4485.601
DataValue, -0.18, 1.42067E-10, 4351.517
DataValue, -0.16, 1.4203500000000002E-10, 4696.746
DataValue, -0.14, 1.41986E-10, 4682.532
DataValue, -0.12, 1.4193300000000002E-10, 4481.937
DataValue, -0.1, 1.4190900000000002E-10, 4504.398
DataValue, -0.08, 1.41871E-10, 4474.063
DataValue, -0.06, 1.41793E-10, 4440.195
DataValue, -0.04, 1.4177600000000002E-10, 4590.509
DataValue, -0.02, 1.417E-10, 4550.077
DataValue, 0, 1.4165000000000002E-10, 4560.12
DataValue, 0.02, 1.4163100000000002E-10, 4578.898
DataValue, 0.04, 1.41566E-10, 4416.845
DataValue, 0.06, 1.4152900000000002E-10, 4470.7
DataValue, 0.08, 1.41458E-10, 4539.599
DataValue, 0.1, 1.4143900000000002E-10, 4600.925
DataValue, 0.12, 1.41379E-10, 4424.542
DataValue, 0.14, 1.4136000000000002E-10, 4519.689
DataValue, 0.16, 1.4130900000000002E-10, 4546.192
DataValue, 0.18, 1.41244E-10, 4434.576
DataValue, 0.2, 1.41232E-10, 4501.905
DataValue, 0.22, 1.4117100000000002E-10, 4272.485
DataValue, 0.24, 1.41123E-10, 4379.245
DataValue, 0.26, 1.41088E-10, 4551.078
DataValue, 0.28, 1.41048E-10, 4366.512
DataValue, 0.3, 1.4098900000000001E-10, 4700.103
DataValue, 0.32, 1.40976E-10, 4729.071
DataValue, 0.34, 1.40931E-10, 4445.716
DataValue, 0.36, 1.40861E-10, 4279.718
DataValue, 0.38, 1.40822E-10, 4354.905
DataValue, 0.4, 1.4076600000000001E-10, 4569.767
DataValue, 0.42, 1.4073400000000002E-10, 4427.212
DataValue, 0.44, 1.40714E-10, 4552.034
DataValue, 0.46, 1.40632E-10, 4581.009
DataValue, 0.48, 1.4059500000000002E-10, 4482.137
DataValue, 0.5, 1.4055000000000002E-10, 4339.741
DataValue, 0.52, 1.40527E-10, 4646.29
DataValue, 0.54, 1.40463E-10, 4554.115
DataValue, 0.56, 1.40437E-10, 4243.664
DataValue, 0.58, 1.40365E-10, 4420.994
DataValue, 0.6, 1.40317E-10, 4411.784
DataValue, 0.62, 1.40307E-10, 4579.61
DataValue, 0.64, 1.40244E-10, 4518.972
DataValue, 0.66, 1.4021500000000002E-10, 4552.828
DataValue, 0.68, 1.40154E-10, 4540.953
DataValue, 0.70000000000000007, 1.40091E-10, 4662.267
DataValue, 0.72, 1.4006400000000001E-10, 4577.618
DataValue, 0.74, 1.40029E-10, 4394.588
DataValue, 0.76, 1.3998600000000002E-10, 4254.494
DataValue, 0.78, 1.3995600000000002E-10, 4521.714
DataValue, 0.8, 1.3991E-10, 4619.558
DataValue, 0.82000000000000006, 1.39867E-10, 4472.2210000000005
DataValue, 0.84, 1.39804E-10, 4659.044
DataValue, 0.86, 1.39791E-10, 4515.963
DataValue, 0.88, 1.3974500000000002E-10, 4383.61
DataValue, 0.9, 1.39695E-10, 4660.6630000000005
DataValue, 0.92, 1.39677E-10, 4494.749
DataValue, 0.94000000000000006, 1.3960600000000001E-10, 4448.937
DataValue, 0.96, 1.3957700000000002E-10, 4576.615
DataValue, 0.98, 1.3952800000000002E-10, 4661.527
DataValue, 1, 1.39484E-10, 4524.5470000000005
DataValue, 1, 1.39493E-10, 4665.465
DataValue, 0.98, 1.39523E-10, 4639.908
DataValue, 0.96, 1.3957000000000002E-10, 4601.354
DataValue, 0.94000000000000006, 1.3962200000000002E-10, 4606.226
DataValue, 0.92, 1.39671E-10, 4563.9800000000005
DataValue, 0.9, 1.3966700000000002E-10, 4492.811
DataValue, 0.88, 1.3973900000000002E-10, 4806.203
DataValue, 0.86, 1.3978700000000002E-10, 4530.409
DataValue, 0.84, 1.39825E-10, 4570.142
DataValue, 0.82000000000000006, 1.39883E-10, 4502.256
DataValue, 0.8, 1.39885E-10, 4549.974
DataValue, 0.78, 1.39972E-10, 4352.9220000000005
DataValue, 0.76, 1.39981E-10, 4488.283
DataValue, 0.74, 1.4003E-10, 4372.6720000000005
DataValue, 0.72, 1.4007900000000001E-10, 4291.608
DataValue, 0.70000000000000007, 1.4015E-10, 4524.519
DataValue, 0.68, 1.4015E-10, 4899.395
DataValue, 0.66, 1.4022100000000002E-10, 4468.235
DataValue, 0.64, 1.40247E-10, 4454.0560000000005
DataValue, 0.62, 1.4031100000000001E-10, 4340.78
DataValue, 0.6, 1.40379E-10, 4542.437
DataValue, 0.58, 1.4038400000000002E-10, 4592.424
DataValue, 0.56, 1.4041100000000002E-10, 4247.268
DataValue, 0.54, 1.4046200000000002E-10, 4637.024
DataValue, 0.52, 1.4049300000000002E-10, 4437.3910000000005
DataValue, 0.5, 1.4054300000000001E-10, 4629.646
DataValue, 0.48, 1.40611E-10, 4541.414
DataValue, 0.46, 1.4062800000000002E-10, 4378.448
DataValue, 0.44, 1.40707E-10, 4666.597
DataValue, 0.42, 1.4073700000000002E-10, 4527.1900000000005
DataValue, 0.4, 1.4077300000000002E-10, 4674.428
DataValue, 0.38, 1.40828E-10, 4373.092
DataValue, 0.36, 1.40861E-10, 4180.511
DataValue, 0.34, 1.4092300000000002E-10, 4625.655
DataValue, 0.32, 1.4096800000000001E-10, 4400.836
DataValue, 0.3, 1.4099900000000002E-10, 4476.896
DataValue, 0.28, 1.41046E-10, 4334.99
DataValue, 0.26, 1.41093E-10, 4629.189
DataValue, 0.24, 1.41124E-10, 4834.127
DataValue, 0.22, 1.4117400000000002E-10, 4257.136
DataValue, 0.2, 1.4122100000000001E-10, 4533.198
DataValue, 0.18, 1.41286E-10, 4498.997
DataValue, 0.16, 1.4126100000000002E-10, 4638.291
DataValue, 0.14, 1.4135700000000002E-10, 4360.176
DataValue, 0.12, 1.41416E-10, 4316.5380000000005
DataValue, 0.1, 1.4143600000000002E-10, 4623.036
DataValue, 0.08, 1.41482E-10, 4622.746
DataValue, 0.06, 1.41554E-10, 4423.139
DataValue, 0.04, 1.41579E-10, 4420.061
DataValue, 0.02, 1.4166500000000002E-10, 4325.396
DataValue, 0, 1.4170400000000002E-10, 4338.071
DataValue, -0.02, 1.41727E-10, 4445.606
DataValue, -0.04, 1.4178E-10, 4468.838
DataValue, -0.06, 1.4181E-10, 4411.138
DataValue, -0.08, 1.4185400000000002E-10, 4499.456
DataValue, -0.1, 1.41883E-10, 4577.356
DataValue, -0.12, 1.41974E-10, 4426.127
DataValue, -0.14, 1.4201100000000002E-10, 4787.149
DataValue, -0.16, 1.4204400000000002E-10, 4453.173
DataValue, -0.18, 1.4208600000000002E-10, 4358.5740000000005
DataValue, -0.2, 1.4216200000000002E-10, 4299.8330000000005
DataValue, -0.22, 1.42197E-10, 4361.421
DataValue, -0.24, 1.4223E-10, 4432.322
DataValue, -0.26, 1.4228800000000002E-10, 4545.023
DataValue, -0.28, 1.4229700000000002E-10, 4519.354
DataValue, -0.3, 1.42384E-10, 4661.2750000000005
DataValue, -0.32, 1.42452E-10, 4463.111
DataValue, -0.34, 1.42473E-10, 4491.006
DataValue, -0.36, 1.42522E-10, 4584.829
DataValue, -0.38, 1.4254800000000002E-10, 4548.936
DataValue, -0.4, 1.4257400000000001E-10, 4533.438
DataValue, -0.42, 1.42639E-10, 4419.71
DataValue, -0.44, 1.4269800000000002E-10, 4529.005
DataValue, -0.46, 1.4270100000000002E-10, 4557.697
DataValue, -0.48, 1.42793E-10, 4584.627
DataValue, -0.5, 1.42824E-10, 4747.684
DataValue, -0.52, 1.42887E-10, 4689.804
DataValue, -0.54, 1.42904E-10, 4634.909
DataValue, -0.56, 1.4299100000000002E-10, 4292.064
DataValue, -0.58, 1.4303600000000002E-10, 4426.835
DataValue, -0.6, 1.43059E-10, 4456.399
DataValue, -0.62, 1.43088E-10, 4570.387
DataValue, -0.64, 1.43175E-10, 4419.207
DataValue, -0.66, 1.4318600000000002E-10, 4460.262
DataValue, -0.68, 1.43257E-10, 4572.044
DataValue, -0.70000000000000007, 1.43291E-10, 4530.411
DataValue, -0.72, 1.4332500000000002E-10, 4543.928
DataValue, -0.74, 1.43401E-10, 4564.336
DataValue, -0.76, 1.4340900000000002E-10, 4513.64
DataValue, -0.78, 1.4348500000000002E-10, 4627.634
DataValue, -0.8, 1.4350000000000002E-10, 4699.271
DataValue, -0.82000000000000006, 1.43574E-10, 4253.224
DataValue, -0.84, 1.4362300000000002E-10, 4505.554
DataValue, -0.86, 1.4367800000000002E-10, 4799.753
DataValue, -0.88, 1.4370500000000002E-10, 4476.023
DataValue, -0.9, 1.4373800000000002E-10, 4432.772
DataValue, -0.92, 1.4375900000000002E-10, 4692.531
DataValue, -0.94000000000000006, 1.43839E-10, 4713.319
DataValue, -0.96, 1.4388500000000002E-10, 4741.451
DataValue, -0.98, 1.4394200000000001E-10, 4547.674
DataValue, -1, 1.43968E-10, 4478.0380000000005
DataValue, -1, 1.4334300000000002E-10, 2377.351
DataValue, -0.98, 1.43323E-10, 2358.3830000000003
DataValue, -0.96, 1.4325200000000001E-10, 2365.339
DataValue, -0.94000000000000006, 1.43218E-10, 2360.9230000000002
DataValue, -0.92, 1.43149E-10, 2362.049
DataValue, -0.9, 1.4311700000000002E-10, 2377.152
DataValue, -0.88, 1.4306600000000002E-10, 2359.788
DataValue, -0.86, 1.4303300000000002E-10, 2331.794
DataValue, -0.84, 1.4297500000000002E-10, 2381.599
DataValue, -0.82000000000000006, 1.4293000000000002E-10, 2374.78
DataValue, -0.8, 1.4291200000000002E-10, 2357.34
DataValue, -0.78, 1.4287600000000002E-10, 2327.003
DataValue, -0.76, 1.4282500000000002E-10, 2329.4230000000002
DataValue, -0.74, 1.4279200000000002E-10, 2314.802
DataValue, -0.72, 1.4275200000000002E-10, 2319.5570000000002
DataValue, -0.70000000000000007, 1.42661E-10, 2361.805
DataValue, -0.68, 1.42613E-10, 2353.1440000000002
DataValue, -0.66, 1.42592E-10, 2316.055
DataValue, -0.64, 1.4253500000000002E-10, 2361.7200000000003
DataValue, -0.62, 1.42519E-10, 2299.216
DataValue, -0.6, 1.42467E-10, 2332.617
DataValue, -0.58, 1.42396E-10, 2350.754
DataValue, -0.56, 1.4234800000000001E-10, 2329.62
DataValue, -0.54, 1.4230600000000002E-10, 2361.525
DataValue, -0.52, 1.42287E-10, 2329.277
DataValue, -0.5, 1.42196E-10, 2369.994
DataValue, -0.48, 1.4215900000000002E-10, 2375.478
DataValue, -0.46, 1.42172E-10, 2326.448
DataValue, -0.44, 1.42076E-10, 2334.404
DataValue, -0.42, 1.42069E-10, 2322.3830000000003
DataValue, -0.4, 1.41965E-10, 2379.705
DataValue, -0.38, 1.41976E-10, 2312.136
DataValue, -0.36, 1.41871E-10, 2366.08
DataValue, -0.34, 1.4183000000000002E-10, 2347.418
DataValue, -0.32, 1.41786E-10, 2370.666
DataValue, -0.3, 1.41799E-10, 2301.111
DataValue, -0.28, 1.41703E-10, 2381.564
DataValue, -0.26, 1.417E-10, 2330.085
DataValue, -0.24, 1.4162300000000002E-10, 2338.945
DataValue, -0.22, 1.41576E-10, 2360.504
DataValue, -0.2, 1.41524E-10, 2340.861
DataValue, -0.18, 1.4152900000000002E-10, 2311.614
DataValue, -0.16, 1.4142600000000001E-10, 2359.949
DataValue, -0.14, 1.41377E-10, 2370.8160000000003
DataValue, -0.12, 1.41346E-10, 2363.53
DataValue, -0.1, 1.4131200000000002E-10, 2361.719
DataValue, -0.08, 1.41305E-10, 2307.68
DataValue, -0.06, 1.41275E-10, 2311.795
DataValue, -0.04, 1.4118800000000001E-10, 2335.357
DataValue, -0.02, 1.41147E-10, 2325.169
DataValue, 0, 1.41082E-10, 2374.084
DataValue, 0.02, 1.41033E-10, 2375.331
DataValue, 0.04, 1.40982E-10, 2353.207
DataValue, 0.06, 1.4093E-10, 2376.763
DataValue, 0.08, 1.4091100000000002E-10, 2365.451
DataValue, 0.1, 1.4087500000000002E-10, 2353.802
DataValue, 0.12, 1.40847E-10, 2324.427
DataValue, 0.14, 1.40811E-10, 2319.556
DataValue, 0.16, 1.4074500000000001E-10, 2348.113
DataValue, 0.18, 1.40692E-10, 2375.2200000000003
DataValue, 0.2, 1.4063700000000002E-10, 2359.585
DataValue, 0.22, 1.40596E-10, 2343.83
DataValue, 0.24, 1.4059800000000002E-10, 2315.342
DataValue, 0.26, 1.40497E-10, 2371.222
DataValue, 0.28, 1.4049000000000002E-10, 2323.02
DataValue, 0.3, 1.4045300000000002E-10, 2337.466
DataValue, 0.32, 1.4037200000000002E-10, 2371.234
DataValue, 0.34, 1.4037E-10, 2341.413
DataValue, 0.36, 1.4032700000000002E-10, 2326.223
DataValue, 0.38, 1.4023600000000002E-10, 2382.291
DataValue, 0.4, 1.4022400000000002E-10, 2359.731
DataValue, 0.42, 1.4016700000000002E-10, 2353.62
DataValue, 0.44, 1.40105E-10, 2352.181
DataValue, 0.46, 1.4003400000000002E-10, 2387.2690000000002
DataValue, 0.48, 1.4006200000000002E-10, 2356.161
DataValue, 0.5, 1.39963E-10, 2387.5950000000003
DataValue, 0.52, 1.3996800000000002E-10, 2310.088
DataValue, 0.54, 1.3994400000000002E-10, 2316.58
DataValue, 0.56, 1.39846E-10, 2372.741
DataValue, 0.58, 1.3983500000000001E-10, 2325.2110000000002
DataValue, 0.6, 1.39785E-10, 2354.1440000000002
DataValue, 0.62, 1.39749E-10, 2345.538
DataValue, 0.64, 1.3967600000000002E-10, 2373.247
DataValue, 0.66, 1.39617E-10, 2387.131
DataValue, 0.68, 1.39584E-10, 2386.4610000000002
DataValue, 0.70000000000000007, 1.39571E-10, 2356.51
DataValue, 0.72, 1.3948900000000002E-10, 2387.901
DataValue, 0.74, 1.39448E-10, 2380.178
DataValue, 0.76, 1.3943500000000002E-10, 2375.2980000000002
DataValue, 0.78, 1.39382E-10, 2355.031
DataValue, 0.8, 1.39336E-10, 2377.123
DataValue, 0.82000000000000006, 1.3930500000000002E-10, 2367.822
DataValue, 0.84, 1.39295E-10, 2330.313
DataValue, 0.86, 1.3923600000000002E-10, 2353.864
