
SetupTitle, C-V Sweep
PrimitiveTest, C-V Sweep
TestParameter, Channel.UnitTyp, CMU
TestParameter, Channel.Unit, CMU1:MF/SC
TestParameter, Channel.IName, 
TestParameter, Channel.VName, VBias
TestParameter, Channel.Mode, 
TestParameter, Channel.Func, VAR1
TestParameter, Channel.Index, 
TestParameter, Channel.Time, 
TestParameter, Measurement.Primary.Locus, Double
TestParameter, Measurement.Primary.Scale, LINEAR
TestParameter, Measurement.Primary.Start, -1
TestParameter, Measurement.Primary.Stop, 1
TestParameter, Measurement.Primary.Step, 0.02
TestParameter, Measurement.Aborting.Condition, CONTINUE AT ANY
TestParameter, Measurement.PostOutput.Value, START
TestParameter, Measurement.PostOutput.Retention, OFF
TestParameter, Measurement.Secondary.ACLevel, 0.05
TestParameter, Measurement.Secondary.FName, Freq
TestParameter, Measurement.Secondary.Frequency, 1000, 10000, 100000, 1000000
TestParameter, Measurement.Bias.Source, 0
TestParameter, Measurement.ImpedanceMode.Model, Cs-Rs
TestParameter, Measurement.ImpedanceMode.CName, C
TestParameter, Measurement.ImpedanceMode.LName, L
TestParameter, Measurement.ImpedanceMode.GName, G
TestParameter, Measurement.ImpedanceMode.RName, R
TestParameter, Measurement.ImpedanceMode.QName, Q
TestParameter, Measurement.ImpedanceMode.DName, D
TestParameter, Measurement.ImpedanceMode.YName, Y
TestParameter, Measurement.ImpedanceMode.ZName, Z
TestParameter, Measurement.ImpedanceMode.ThName, Theta
TestParameter, Measurement.ImpedanceMode.BName, B
TestParameter, Measurement.ImpedanceMode.XName, X
TestParameter, Measurement.Monitor.Unit, CMU1:MF/SC
TestParameter, Measurement.Monitor.RangingMode, AUTO
TestParameter, Measurement.Monitor.RangeBoundary, 50
TestParameter, Measurement.Monitor.AcMonitorSymbol, 
TestParameter, Measurement.Monitor.DcMonitorSymbol, 
TestParameter, Measurement.Timing.Hold, 0
TestParameter, Measurement.Timing.Delay, 0
TestParameter, Measurement.Adc.UnitType, Cmu, Smu
TestParameter, Measurement.Adc.HighResolution.Mode, AUTO, AUTO
TestParameter, Measurement.Adc.HighResolution.Coeff, 2, 6
TestParameter, Measurement.WaitTime.Source.Coeff, 1
TestParameter, Measurement.WaitTime.Source.Offset, 0
TestParameter, Measurement.WaitTime.Monitor.Coeff, 1
TestParameter, Measurement.WaitTime.Monitor.Offset, 0
TestParameter, Output.Graph.Enabled, true
TestParameter, Output.Graph.AutoScaling, false
TestParameter, Output.Graph.XAxis.Data, VBias
TestParameter, Output.Graph.XAxis.Scale, Linear
TestParameter, Output.Graph.XAxis.Left, -0.1
TestParameter, Output.Graph.XAxis.Right, 0.1
TestParameter, Output.Graph.XAxis.RunTimeAutoScale, true
TestParameter, Output.Graph.YAxis.Data, C, R
TestParameter, Output.Graph.YAxis.Scale, Linear, Linear
TestParameter, Output.Graph.YAxis.Bottom, 0, 0
TestParameter, Output.Graph.YAxis.Top, 1E-10, 10000
TestParameter, Output.Graph.YAxis.Group, , 
TestParameter, Output.Graph.YAxis.RunTimeAutoScale, true, true
TestParameter, AutoAnalysis.Interpolation, false
TestParameter, AutoAnalysis.Line1.Enabled, false
TestParameter, AutoAnalysis.Line1.Type, 1
TestParameter, AutoAnalysis.Line1.Fix, True
TestParameter, AutoAnalysis.Line1.YAxis, 0
TestParameter, AutoAnalysis.Line1.Point1.Type, 0
TestParameter, AutoAnalysis.Line1.Point1.XY.X, 
TestParameter, AutoAnalysis.Line1.Point1.XY.Y, 
TestParameter, AutoAnalysis.Line1.Point1.Data.Var, 
TestParameter, AutoAnalysis.Line1.Point1.Data.Condition, 
TestParameter, AutoAnalysis.Line1.Point1.Data.Start, false
TestParameter, AutoAnalysis.Line1.Point1.Data.StartVar, 
TestParameter, AutoAnalysis.Line1.Point1.Data.StartCondition, 
TestParameter, AutoAnalysis.Line1.Point2.Type, 0
TestParameter, AutoAnalysis.Line1.Point2.XY.X, 
TestParameter, AutoAnalysis.Line1.Point2.XY.Y, 
TestParameter, AutoAnalysis.Line1.Point2.Data.Var, 
TestParameter, AutoAnalysis.Line1.Point2.Data.Condition, 
TestParameter, AutoAnalysis.Line1.Point2.Data.Start, false
TestParameter, AutoAnalysis.Line1.Point2.Data.StartVar, 
TestParameter, AutoAnalysis.Line1.Point2.Data.StartCondition, 
TestParameter, AutoAnalysis.Line1.GradientExpr, 0
TestParameter, AutoAnalysis.Line2.Enabled, false
TestParameter, AutoAnalysis.Line2.Type, 1
TestParameter, AutoAnalysis.Line2.Fix, True
TestParameter, AutoAnalysis.Line2.YAxis, 0
TestParameter, AutoAnalysis.Line2.Point1.Type, 0
TestParameter, AutoAnalysis.Line2.Point1.XY.X, 
TestParameter, AutoAnalysis.Line2.Point1.XY.Y, 
TestParameter, AutoAnalysis.Line2.Point1.Data.Var, 
TestParameter, AutoAnalysis.Line2.Point1.Data.Condition, 
TestParameter, AutoAnalysis.Line2.Point1.Data.Start, false
TestParameter, AutoAnalysis.Line2.Point1.Data.StartVar, 
TestParameter, AutoAnalysis.Line2.Point1.Data.StartCondition, 
TestParameter, AutoAnalysis.Line2.Point2.Type, 0
TestParameter, AutoAnalysis.Line2.Point2.XY.X, 
TestParameter, AutoAnalysis.Line2.Point2.XY.Y, 
TestParameter, AutoAnalysis.Line2.Point2.Data.Var, 
TestParameter, AutoAnalysis.Line2.Point2.Data.Condition, 
TestParameter, AutoAnalysis.Line2.Point2.Data.Start, false
TestParameter, AutoAnalysis.Line2.Point2.Data.StartVar, 
TestParameter, AutoAnalysis.Line2.Point2.Data.StartCondition, 
TestParameter, AutoAnalysis.Line2.GradientExpr, 0
TestParameter, AutoAnalysis.Marker.Enabled, false
TestParameter, AutoAnalysis.Marker.Data.Var, 
TestParameter, AutoAnalysis.Marker.Data.Condition, 
TestParameter, AutoAnalysis.Marker.Data.Start, false
TestParameter, AutoAnalysis.Marker.Data.StartVar, 
TestParameter, AutoAnalysis.Marker.Data.StartCondition, 
MetaData, TestRecord.EntryPoint, true
MetaData, TestRecord.RecordTime, 11/25/2019 15:41:43
MetaData, TestRecord.TestTarget, Al_2.0_5
MetaData, TestRecord.IterationIndex, 2
MetaData, TestRecord.Preservation, true
MetaData, TestRecord.Flag, 
MetaData, TestRecord.Remarks, 
MetaData, TestRecord.LinkKey, 2ece1296-96e7-48a4-b2e1-d21ac711bf85
Dimension1, 202, 202, 202
Dimension2, 4, 4, 4
DataName, VBias, C, R
DataValue, -1, 1.96661E-10, 60425.11
DataValue, -0.98, 1.9668100000000002E-10, 59428.14
DataValue, -0.96, 1.96688E-10, 58536.68
DataValue, -0.94000000000000006, 1.96737E-10, 57767.86
DataValue, -0.92, 1.96719E-10, 57083.380000000005
DataValue, -0.9, 1.9672600000000002E-10, 56635.11
DataValue, -0.88, 1.96692E-10, 55722.22
DataValue, -0.86, 1.96719E-10, 55328.03
DataValue, -0.84, 1.9673800000000002E-10, 54564.8
DataValue, -0.82000000000000006, 1.9673900000000003E-10, 54130.840000000004
DataValue, -0.8, 1.96761E-10, 53746.200000000004
DataValue, -0.78, 1.96782E-10, 53121.55
DataValue, -0.76, 1.9676800000000002E-10, 52672.46
DataValue, -0.74, 1.9678300000000002E-10, 52093.32
DataValue, -0.72, 1.96791E-10, 51643.16
DataValue, -0.70000000000000007, 1.9678400000000003E-10, 51072.62
DataValue, -0.68, 1.9679300000000003E-10, 50892.24
DataValue, -0.66, 1.96836E-10, 50432.950000000004
DataValue, -0.64, 1.96875E-10, 50028.07
DataValue, -0.62, 1.9687100000000002E-10, 49493.8
DataValue, -0.6, 1.9688500000000001E-10, 49259.99
DataValue, -0.58, 1.9686200000000002E-10, 48968.58
DataValue, -0.56, 1.9687700000000002E-10, 48647.75
DataValue, -0.54, 1.96911E-10, 48337.74
DataValue, -0.52, 1.9691900000000002E-10, 48036.81
DataValue, -0.5, 1.9689800000000002E-10, 47609.520000000004
DataValue, -0.48, 1.96932E-10, 47351.3
DataValue, -0.46, 1.9696700000000002E-10, 47132.55
DataValue, -0.44, 1.96938E-10, 46772.97
DataValue, -0.42, 1.96947E-10, 46573.75
DataValue, -0.4, 1.96933E-10, 46320.88
DataValue, -0.38, 1.96987E-10, 45916.64
DataValue, -0.36, 1.97014E-10, 45580.81
DataValue, -0.34, 1.9697300000000002E-10, 45359.55
DataValue, -0.32, 1.9697600000000002E-10, 45103.48
DataValue, -0.3, 1.9700600000000002E-10, 44787.57
DataValue, -0.28, 1.9699800000000003E-10, 44697.92
DataValue, -0.26, 1.9706000000000002E-10, 44420.83
DataValue, -0.24, 1.9704000000000003E-10, 44319.3
DataValue, -0.22, 1.9707800000000002E-10, 43977.12
DataValue, -0.2, 1.9708100000000002E-10, 43704.78
DataValue, -0.18, 1.9708700000000001E-10, 43530.44
DataValue, -0.16, 1.97126E-10, 43580.68
DataValue, -0.14, 1.97143E-10, 43280.23
DataValue, -0.12, 1.9716000000000002E-10, 43295.3
DataValue, -0.1, 1.97168E-10, 43018.1
DataValue, -0.08, 1.9718400000000002E-10, 42690.590000000004
DataValue, -0.06, 1.9720800000000002E-10, 42519.73
DataValue, -0.04, 1.97192E-10, 42426.21
DataValue, -0.02, 1.97237E-10, 42139.3
DataValue, 0, 1.9721500000000003E-10, 42058.65
DataValue, 0.02, 1.9724400000000002E-10, 42019.94
DataValue, 0.04, 1.97297E-10, 41697.12
DataValue, 0.06, 1.9730100000000002E-10, 41410.87
DataValue, 0.08, 1.9732800000000001E-10, 41376.78
DataValue, 0.1, 1.9736E-10, 41283.16
DataValue, 0.12, 1.97399E-10, 41326.94
DataValue, 0.14, 1.9738900000000002E-10, 41102.73
DataValue, 0.16, 1.9739800000000002E-10, 41119.61
DataValue, 0.18, 1.9744900000000002E-10, 40873.75
DataValue, 0.2, 1.9744600000000002E-10, 40774.51
DataValue, 0.22, 1.97499E-10, 40676.41
DataValue, 0.24, 1.97493E-10, 40595.700000000004
DataValue, 0.26, 1.9752800000000002E-10, 40351.770000000004
DataValue, 0.28, 1.9755400000000001E-10, 40252.520000000004
DataValue, 0.3, 1.97589E-10, 40195.270000000004
DataValue, 0.32, 1.9758500000000002E-10, 39969.65
DataValue, 0.34, 1.97614E-10, 40025.23
DataValue, 0.36, 1.97613E-10, 39838.58
DataValue, 0.38, 1.9765E-10, 39610.58
DataValue, 0.4, 1.9771800000000003E-10, 39642.47
DataValue, 0.42, 1.9773600000000002E-10, 39512.62
DataValue, 0.44, 1.97755E-10, 39538.91
DataValue, 0.46, 1.97818E-10, 39523.31
DataValue, 0.48, 1.9781700000000002E-10, 39090.840000000004
DataValue, 0.5, 1.9789200000000002E-10, 39119.36
DataValue, 0.52, 1.97855E-10, 39165.54
DataValue, 0.54, 1.9790100000000002E-10, 39110.32
DataValue, 0.56, 1.9791900000000002E-10, 38901.75
DataValue, 0.58, 1.9794600000000002E-10, 38834.97
DataValue, 0.6, 1.9799E-10, 38851.5
DataValue, 0.62, 1.9802400000000001E-10, 38799.68
DataValue, 0.64, 1.98059E-10, 38811.67
DataValue, 0.66, 1.98129E-10, 38944.33
DataValue, 0.68, 1.9811300000000003E-10, 38550.69
DataValue, 0.70000000000000007, 1.9813600000000002E-10, 38691.85
DataValue, 0.72, 1.98204E-10, 38531.43
DataValue, 0.74, 1.9823500000000001E-10, 38469.63
DataValue, 0.76, 1.9825600000000001E-10, 38312.270000000004
DataValue, 0.78, 1.9830900000000003E-10, 38294.97
DataValue, 0.8, 1.9831400000000002E-10, 38205.68
DataValue, 0.82000000000000006, 1.9832600000000002E-10, 38275.24
DataValue, 0.84, 1.9839500000000002E-10, 38155.58
DataValue, 0.86, 1.98433E-10, 38005.54
DataValue, 0.88, 1.98478E-10, 38071.56
DataValue, 0.9, 1.98487E-10, 37937.89
DataValue, 0.92, 1.9855000000000003E-10, 37919.13
DataValue, 0.94000000000000006, 1.9861500000000002E-10, 37740.49
DataValue, 0.96, 1.98644E-10, 37936.58
DataValue, 0.98, 1.98668E-10, 37865.67
DataValue, 1, 1.9870600000000002E-10, 37551.89
DataValue, 1, 1.9868700000000001E-10, 37755.24
DataValue, 0.98, 1.9867000000000002E-10, 37874.6
DataValue, 0.96, 1.9860100000000003E-10, 37952.88
DataValue, 0.94000000000000006, 1.9855600000000003E-10, 37850.5
DataValue, 0.92, 1.9850700000000002E-10, 38068
DataValue, 0.9, 1.9845000000000002E-10, 38141.69
DataValue, 0.88, 1.9837100000000002E-10, 38211.1
DataValue, 0.86, 1.98358E-10, 38302.01
DataValue, 0.84, 1.98349E-10, 38228.19
DataValue, 0.82000000000000006, 1.9829900000000002E-10, 38330.590000000004
DataValue, 0.8, 1.9824400000000001E-10, 38445.92
DataValue, 0.78, 1.98189E-10, 38516.89
DataValue, 0.76, 1.9817600000000003E-10, 38467.96
DataValue, 0.74, 1.9815200000000003E-10, 38723.04
DataValue, 0.72, 1.9812700000000002E-10, 38883.75
DataValue, 0.70000000000000007, 1.98062E-10, 38881.19
DataValue, 0.68, 1.98045E-10, 38903.23
DataValue, 0.66, 1.9797700000000002E-10, 38907.43
DataValue, 0.64, 1.9798000000000002E-10, 38881.92
DataValue, 0.62, 1.9797100000000002E-10, 39068.200000000004
DataValue, 0.6, 1.9793500000000003E-10, 39140.31
DataValue, 0.58, 1.9784700000000002E-10, 39417.29
DataValue, 0.56, 1.97827E-10, 39400.5
DataValue, 0.54, 1.9778400000000002E-10, 39604.6
DataValue, 0.52, 1.9774400000000002E-10, 39748.96
DataValue, 0.5, 1.9770000000000003E-10, 39698.43
DataValue, 0.48, 1.97662E-10, 39854.81
DataValue, 0.46, 1.9766400000000003E-10, 39942.1
DataValue, 0.44, 1.97587E-10, 39965.14
DataValue, 0.42, 1.97629E-10, 40075.79
DataValue, 0.4, 1.9757600000000002E-10, 40151.69
DataValue, 0.38, 1.9755200000000002E-10, 40318.46
DataValue, 0.36, 1.9754000000000002E-10, 40446.96
DataValue, 0.34, 1.97499E-10, 40513.590000000004
DataValue, 0.32, 1.9743E-10, 40814.89
DataValue, 0.3, 1.9744000000000002E-10, 40884.78
DataValue, 0.28, 1.97445E-10, 41087.74
DataValue, 0.26, 1.9741300000000002E-10, 41193.07
DataValue, 0.24, 1.97372E-10, 41341.43
DataValue, 0.22, 1.9737E-10, 41539.46
DataValue, 0.2, 1.973E-10, 41683.46
DataValue, 0.18, 1.9727E-10, 41767.950000000004
DataValue, 0.16, 1.9729300000000002E-10, 41967.66
DataValue, 0.14, 1.9720600000000003E-10, 42124.6
DataValue, 0.12, 1.9720500000000002E-10, 42368.25
DataValue, 0.1, 1.97192E-10, 42407.67
DataValue, 0.08, 1.9716000000000002E-10, 42404.05
DataValue, 0.06, 1.97104E-10, 42636.01
DataValue, 0.04, 1.97152E-10, 42949.020000000004
DataValue, 0.02, 1.97143E-10, 43195.12
DataValue, 0, 1.97083E-10, 43339.72
DataValue, -0.02, 1.9709400000000002E-10, 43372.770000000004
DataValue, -0.04, 1.9707300000000002E-10, 43363.340000000004
DataValue, -0.06, 1.9704300000000003E-10, 43719.01
DataValue, -0.08, 1.97038E-10, 43900.61
DataValue, -0.1, 1.9704300000000003E-10, 44030.8
DataValue, -0.12, 1.97008E-10, 44338.17
DataValue, -0.14, 1.9703900000000002E-10, 44664.22
DataValue, -0.16, 1.9698300000000003E-10, 44714.72
DataValue, -0.18, 1.96972E-10, 45047.83
DataValue, -0.2, 1.9696800000000003E-10, 45355.61
DataValue, -0.22, 1.9697100000000003E-10, 45488.41
DataValue, -0.24, 1.96911E-10, 45800.85
DataValue, -0.26, 1.96902E-10, 45941.54
DataValue, -0.28, 1.9689800000000002E-10, 46202.200000000004
DataValue, -0.3, 1.969E-10, 46445.12
DataValue, -0.32, 1.96863E-10, 46610.72
DataValue, -0.34, 1.96896E-10, 46951.97
DataValue, -0.36, 1.9685200000000002E-10, 47325.75
DataValue, -0.38, 1.9686E-10, 47469.47
DataValue, -0.4, 1.9681100000000003E-10, 47846.5
DataValue, -0.42, 1.9682000000000002E-10, 47978.74
DataValue, -0.44, 1.96818E-10, 48338.31
DataValue, -0.46, 1.9679800000000002E-10, 48588.17
DataValue, -0.48, 1.9676200000000002E-10, 48884.29
DataValue, -0.5, 1.9675900000000002E-10, 48995.950000000004
DataValue, -0.52, 1.96803E-10, 49355.64
DataValue, -0.54, 1.96776E-10, 49613.75
DataValue, -0.56, 1.9677500000000003E-10, 49999.700000000004
DataValue, -0.58, 1.9679500000000002E-10, 50369.340000000004
DataValue, -0.6, 1.9677400000000002E-10, 50723.71
DataValue, -0.62, 1.9676800000000002E-10, 51094.19
DataValue, -0.64, 1.9674800000000003E-10, 51415.47
DataValue, -0.66, 1.9674700000000002E-10, 51749.700000000004
DataValue, -0.68, 1.9671700000000002E-10, 52228.68
DataValue, -0.70000000000000007, 1.96797E-10, 52453.15
DataValue, -0.72, 1.96734E-10, 53058.05
DataValue, -0.74, 1.96713E-10, 53405.55
DataValue, -0.76, 1.9675000000000002E-10, 53698.9
DataValue, -0.78, 1.9673600000000003E-10, 54111.49
DataValue, -0.8, 1.9674500000000003E-10, 54630.4
DataValue, -0.82000000000000006, 1.96691E-10, 54986.18
DataValue, -0.84, 1.9674400000000002E-10, 55532.57
DataValue, -0.86, 1.9671400000000002E-10, 55769.26
DataValue, -0.88, 1.9674800000000003E-10, 56248.69
DataValue, -0.9, 1.96728E-10, 56751.65
DataValue, -0.92, 1.9669300000000002E-10, 57215.1
DataValue, -0.94000000000000006, 1.96716E-10, 57631.93
DataValue, -0.96, 1.9670200000000002E-10, 57960.6
DataValue, -0.98, 1.96701E-10, 58570.03
DataValue, -1, 1.9668700000000002E-10, 59101.31
DataValue, -1, 1.7710300000000001E-10, 35814.93
DataValue, -0.98, 1.7729600000000002E-10, 35533.49
DataValue, -0.96, 1.7759200000000002E-10, 35097.03
DataValue, -0.94000000000000006, 1.77823E-10, 34806.53
DataValue, -0.92, 1.7807400000000002E-10, 34488.9
DataValue, -0.9, 1.78299E-10, 34144.26
DataValue, -0.88, 1.78503E-10, 33893.07
DataValue, -0.86, 1.78624E-10, 33647.89
DataValue, -0.84, 1.7887300000000002E-10, 33392.24
DataValue, -0.82000000000000006, 1.7906600000000003E-10, 33080.13
DataValue, -0.8, 1.7915500000000001E-10, 32897.81
DataValue, -0.78, 1.7937300000000002E-10, 32627.45
DataValue, -0.76, 1.7965000000000002E-10, 32385.100000000002
DataValue, -0.74, 1.7976E-10, 32107.760000000002
DataValue, -0.72, 1.79863E-10, 31892.99
DataValue, -0.70000000000000007, 1.79998E-10, 31827.05
DataValue, -0.68, 1.8026100000000002E-10, 31543.79
DataValue, -0.66, 1.8035800000000002E-10, 31381.84
DataValue, -0.64, 1.80543E-10, 31127.07
DataValue, -0.62, 1.80718E-10, 30939.47
DataValue, -0.6, 1.80794E-10, 30874.190000000002
DataValue, -0.58, 1.80775E-10, 30727.58
DataValue, -0.56, 1.80962E-10, 30519.81
DataValue, -0.54, 1.8118600000000001E-10, 30273.420000000002
DataValue, -0.52, 1.8132900000000003E-10, 30092.54
DataValue, -0.5, 1.81303E-10, 30016.09
DataValue, -0.48, 1.8139100000000002E-10, 29933.49
DataValue, -0.46, 1.8158500000000003E-10, 29692.86
DataValue, -0.44, 1.8170200000000002E-10, 29565.91
DataValue, -0.42, 1.8174E-10, 29384.24
DataValue, -0.4, 1.81812E-10, 29337.350000000002
DataValue, -0.38, 1.81944E-10, 29206.14
DataValue, -0.36, 1.8202200000000003E-10, 29072.84
DataValue, -0.34, 1.8219000000000002E-10, 28958.58
DataValue, -0.32, 1.82104E-10, 28966.07
DataValue, -0.3, 1.8232800000000001E-10, 28716.24
DataValue, -0.28, 1.82544E-10, 28478.33
DataValue, -0.26, 1.8248500000000002E-10, 28481.78
DataValue, -0.24, 1.8260900000000002E-10, 28313.46
DataValue, -0.22, 1.82734E-10, 28226.07
DataValue, -0.2, 1.8284E-10, 28071.48
DataValue, -0.18, 1.8296500000000002E-10, 27998.54
DataValue, -0.16, 1.82875E-10, 27885.57
DataValue, -0.14, 1.83063E-10, 27813.97
DataValue, -0.12, 1.8311200000000002E-10, 27779.58
DataValue, -0.1, 1.8318800000000002E-10, 27600.09
DataValue, -0.08, 1.8324100000000001E-10, 27527.12
DataValue, -0.06, 1.83355E-10, 27497.690000000002
DataValue, -0.04, 1.8331E-10, 27458.55
DataValue, -0.02, 1.8339300000000003E-10, 27379.36
DataValue, 0, 1.8339500000000002E-10, 27277.64
DataValue, 0.02, 1.83635E-10, 27100.33
DataValue, 0.04, 1.8360000000000002E-10, 27101.760000000002
DataValue, 0.06, 1.83734E-10, 27079.18
DataValue, 0.08, 1.8380000000000003E-10, 26898.04
DataValue, 0.1, 1.8382600000000002E-10, 26832.25
DataValue, 0.12, 1.83994E-10, 26744.12
DataValue, 0.14, 1.8406E-10, 26696.46
DataValue, 0.16, 1.8406800000000003E-10, 26623.510000000002
DataValue, 0.18, 1.8407600000000002E-10, 26640.24
DataValue, 0.2, 1.8408000000000003E-10, 26620.3
DataValue, 0.22, 1.84207E-10, 26574.25
DataValue, 0.24, 1.8423300000000002E-10, 26516.84
DataValue, 0.26, 1.84231E-10, 26453.08
DataValue, 0.28, 1.8437400000000001E-10, 26357.04
DataValue, 0.3, 1.84407E-10, 26334.47
DataValue, 0.32, 1.8447100000000002E-10, 26228.670000000002
DataValue, 0.34, 1.84533E-10, 26161.43
DataValue, 0.36, 1.8465200000000002E-10, 26049.03
DataValue, 0.38, 1.84653E-10, 26042.670000000002
DataValue, 0.4, 1.8469100000000002E-10, 26095.55
DataValue, 0.42, 1.8467600000000002E-10, 25992.98
DataValue, 0.44, 1.84828E-10, 25790.36
DataValue, 0.46, 1.8484400000000001E-10, 25864.04
DataValue, 0.48, 1.84946E-10, 25811.82
DataValue, 0.5, 1.8490500000000002E-10, 25843.06
DataValue, 0.52, 1.8497400000000002E-10, 25804.91
DataValue, 0.54, 1.8498600000000002E-10, 25777.34
DataValue, 0.56, 1.8510100000000002E-10, 25708.9
DataValue, 0.58, 1.85151E-10, 25705.14
DataValue, 0.6, 1.85214E-10, 25633.81
DataValue, 0.62, 1.8518200000000002E-10, 25636.97
DataValue, 0.64, 1.85364E-10, 25541.02
DataValue, 0.66, 1.85446E-10, 25467.97
DataValue, 0.68, 1.8539900000000002E-10, 25628.08
DataValue, 0.70000000000000007, 1.8538500000000003E-10, 25538.43
DataValue, 0.72, 1.8540000000000003E-10, 25508.09
